
SetupTitle, Trf-initial
PrimitiveTest, I/V Sweep
TestParameter, Context.MainFrame, B1500A
TestParameter, Channel.UnitType, SMU, SMU, SMU
TestParameter, Channel.Unit, SMU4:MP, SMU1:HR, SMU2:HR
TestParameter, Channel.IName, Id, Ig, Is
TestParameter, Channel.VName, Vd, Vg, Vs
TestParameter, Channel.Mode, V, V, COMMON
TestParameter, Channel.Func, CONST, VAR1, CONST
TestParameter, Channel.Index, 
TestParameter, Channel.Time, 
TestParameter, Measurement.Port.Unit, SMU4:MP, SMU1:HR, SMU2:HR
TestParameter, Measurement.Port.SeriesResistor, NONE, NONE, NONE
TestParameter, Measurement.Port.Filter, ON, ON, ON
TestParameter, Measurement.Port.OutputVoltageComparison, 0, 0, 0
TestParameter, Measurement.Primary.Locus, Double
TestParameter, Measurement.Primary.Scale, LINEAR
TestParameter, Measurement.Primary.Start, -10
TestParameter, Measurement.Primary.Stop, 10
TestParameter, Measurement.Primary.Step, 0.05
TestParameter, Measurement.Primary.Compliance, 0.1
TestParameter, Measurement.Primary.PowerCompliance, 0
TestParameter, Measurement.Aborting.Condition, CONTINUE AT ANY
TestParameter, Measurement.PostOutput.Value, START
TestParameter, Measurement.PostOutput.Retention, OFF
TestParameter, Measurement.Bias.Source, 0.1, -10, 0
TestParameter, Measurement.Bias.Compliance, 0.1, 0.1, 0.1
TestParameter, Measurement.Monitor.Unit, SMU4:MP, SMU1:HR, SMU2:HR
TestParameter, Measurement.Monitor.Adc, HR ADC, HR ADC, HR ADC
TestParameter, Measurement.Monitor.Measurement, Compliance Side, Compliance Side, Compliance Side
TestParameter, Measurement.Monitor.RangingMode, LIMITED, LIMITED, LIMITED
TestParameter, Measurement.Monitor.RangeBoundary, 1nA, 1nA, 1nA
TestParameter, Measurement.Monitor.RangeRating, BY FULL RANGE, BY FULL RANGE, BY FULL RANGE
TestParameter, Measurement.Monitor.RangeRatingCoeff, 50, 50, 50
TestParameter, Measurement.Timing.Hold, 0
TestParameter, Measurement.Timing.Delay, 0
TestParameter, Measurement.Adc.HighSpeed.Mode, AUTO
TestParameter, Measurement.Adc.HighSpeed.Coeff, 1
TestParameter, Measurement.Adc.HighResolution.AutoZero, OFF
TestParameter, Measurement.Adc.HighResolution.Mode, AUTO
TestParameter, Measurement.Adc.HighResolution.Coeff, 6
TestParameter, Measurement.WaitTime.Source.Coeff, 1
TestParameter, Measurement.WaitTime.Source.Offset, 0
TestParameter, Measurement.WaitTime.Monitor.Coeff, 1
TestParameter, Measurement.WaitTime.Monitor.Offset, 0
TestParameter, Output.Graph.Enabled, true
TestParameter, Output.Graph.AutoScaling, false
TestParameter, Output.Graph.XAxis.Data, Vg
TestParameter, Output.Graph.XAxis.Scale, Linear
TestParameter, Output.Graph.XAxis.Left, -10
TestParameter, Output.Graph.XAxis.Right, 10
TestParameter, Output.Graph.XAxis.RunTimeAutoScale, true
TestParameter, Output.Graph.YAxis.Data, Id, Ig
TestParameter, Output.Graph.YAxis.Scale, Linear, Linear
TestParameter, Output.Graph.YAxis.Bottom, -0.1, -0.1
TestParameter, Output.Graph.YAxis.Top, 0.1, 0.1
TestParameter, Output.Graph.YAxis.Group, , 
TestParameter, Output.Graph.YAxis.RunTimeAutoScale, true, true
TestParameter, Output.Scalar.Data, Vd
TestParameter, AutoAnalysis.Interpolation, false
TestParameter, AutoAnalysis.Line1.Enabled, false
TestParameter, AutoAnalysis.Line1.Type, 1
TestParameter, AutoAnalysis.Line1.Fix, True
TestParameter, AutoAnalysis.Line1.YAxis, 0
TestParameter, AutoAnalysis.Line1.Point1.Type, 0
TestParameter, AutoAnalysis.Line1.Point1.XY.X, 
TestParameter, AutoAnalysis.Line1.Point1.XY.Y, 
TestParameter, AutoAnalysis.Line1.Point1.Data.Var, 
TestParameter, AutoAnalysis.Line1.Point1.Data.Condition, 
TestParameter, AutoAnalysis.Line1.Point1.Data.Start, false
TestParameter, AutoAnalysis.Line1.Point1.Data.StartVar, 
TestParameter, AutoAnalysis.Line1.Point1.Data.StartCondition, 
TestParameter, AutoAnalysis.Line1.Point2.Type, 0
TestParameter, AutoAnalysis.Line1.Point2.XY.X, 
TestParameter, AutoAnalysis.Line1.Point2.XY.Y, 
TestParameter, AutoAnalysis.Line1.Point2.Data.Var, 
TestParameter, AutoAnalysis.Line1.Point2.Data.Condition, 
TestParameter, AutoAnalysis.Line1.Point2.Data.Start, false
TestParameter, AutoAnalysis.Line1.Point2.Data.StartVar, 
TestParameter, AutoAnalysis.Line1.Point2.Data.StartCondition, 
TestParameter, AutoAnalysis.Line1.GradientExpr, 0
TestParameter, AutoAnalysis.Line2.Enabled, false
TestParameter, AutoAnalysis.Line2.Type, 1
TestParameter, AutoAnalysis.Line2.Fix, True
TestParameter, AutoAnalysis.Line2.YAxis, 0
TestParameter, AutoAnalysis.Line2.Point1.Type, 0
TestParameter, AutoAnalysis.Line2.Point1.XY.X, 
TestParameter, AutoAnalysis.Line2.Point1.XY.Y, 
TestParameter, AutoAnalysis.Line2.Point1.Data.Var, 
TestParameter, AutoAnalysis.Line2.Point1.Data.Condition, 
TestParameter, AutoAnalysis.Line2.Point1.Data.Start, false
TestParameter, AutoAnalysis.Line2.Point1.Data.StartVar, 
TestParameter, AutoAnalysis.Line2.Point1.Data.StartCondition, 
TestParameter, AutoAnalysis.Line2.Point2.Type, 0
TestParameter, AutoAnalysis.Line2.Point2.XY.X, 
TestParameter, AutoAnalysis.Line2.Point2.XY.Y, 
TestParameter, AutoAnalysis.Line2.Point2.Data.Var, 
TestParameter, AutoAnalysis.Line2.Point2.Data.Condition, 
TestParameter, AutoAnalysis.Line2.Point2.Data.Start, false
TestParameter, AutoAnalysis.Line2.Point2.Data.StartVar, 
TestParameter, AutoAnalysis.Line2.Point2.Data.StartCondition, 
TestParameter, AutoAnalysis.Line2.GradientExpr, 0
TestParameter, AutoAnalysis.Marker.Enabled, false
TestParameter, AutoAnalysis.Marker.Data.Var, 
TestParameter, AutoAnalysis.Marker.Data.Condition, 
TestParameter, AutoAnalysis.Marker.Data.Start, false
TestParameter, AutoAnalysis.Marker.Data.StartVar, 
TestParameter, AutoAnalysis.Marker.Data.StartCondition, 
MetaData, TestRecord.EntryPoint, true
MetaData, TestRecord.RecordTime, 11/13/2017 10:50:40
MetaData, TestRecord.TestTarget, 
MetaData, TestRecord.IterationIndex, 3
MetaData, TestRecord.Preservation, true
MetaData, TestRecord.Flag, 
MetaData, TestRecord.Remarks, 
MetaData, TestRecord.LinkKey, 1c63ea41-12e5-412f-b803-a5a5201cd7e8
Dimension1, 802, 802, 802, 802
Dimension2, 1, 1, 1, 1
DataName, Vg, Vd, Id, Ig
DataValue, -10, 0.1, 1.03E-12, 3.7670000000000004E-11
DataValue, -9.9500000000000011, 0.1, 6.5000000000000006E-13, -6.25E-12
DataValue, -9.9, 0.1, -5.865E-11, -2.5170000000000002E-11
DataValue, -9.85, 0.1, -2.5500000000000002E-12, -5.5310000000000007E-11
DataValue, -9.8, 0.1, -2.5E-13, -4.48E-12
DataValue, -9.75, 0.1, 3.624E-11, 9.2000000000000012E-12
DataValue, -9.7000000000000011, 0.1, 4.6460000000000007E-11, 4.7910000000000006E-11
DataValue, -9.65, 0.1, 4.51E-12, 2.622E-11
DataValue, -9.6, 0.1, -6.91E-12, -6.3400000000000009E-12
DataValue, -9.55, 0.1, -6.079E-11, -3.1700000000000004E-11
DataValue, -9.5, 0.1, -9.2000000000000012E-13, -5.0500000000000007E-11
DataValue, -9.4500000000000011, 0.1, -1.9E-12, 8.8000000000000009E-13
DataValue, -9.4, 0.1, 5.207E-11, 1.4190000000000002E-11
DataValue, -9.35, 0.1, 2.8340000000000002E-11, 5.4060000000000005E-11
DataValue, -9.3, 0.1, 2.0200000000000003E-12, 1.333E-11
DataValue, -9.25, 0.1, -1.9860000000000003E-11, -8.61E-12
DataValue, -9.2000000000000011, 0.1, -5.85E-11, -4.276E-11
DataValue, -9.15, 0.1, -1.8400000000000002E-12, -4.0180000000000004E-11
DataValue, -9.1, 0.1, 2E-13, 2.5800000000000003E-12
DataValue, -9.05, 0.1, 5.916E-11, 2.0930000000000002E-11
DataValue, -9, 0.1, 4.9600000000000007E-12, 5.2710000000000005E-11
DataValue, -8.9500000000000011, 0.1, 2.49E-12, 2.52E-12
DataValue, -8.9, 0.1, -3.7020000000000005E-11, -1.1940000000000001E-11
DataValue, -8.85, 0.1, -4.4270000000000006E-11, -5.127E-11
DataValue, -8.8, 0.1, -1.85E-12, -2.6210000000000002E-11
DataValue, -8.75, 0.1, 9.36E-12, 4.9100000000000007E-12
DataValue, -8.7000000000000011, 0.1, 6.109E-11, 3.209E-11
DataValue, -8.65, 0.1, 2.6300000000000003E-12, 4.592E-11
DataValue, -8.6, 0.1, 7.3E-13, -3.0400000000000004E-12
DataValue, -8.55, 0.1, -5.3140000000000003E-11, -1.814E-11
DataValue, -8.5, 0.1, -2.1710000000000002E-11, -5.5300000000000005E-11
DataValue, -8.45, 0.1, -9.5E-13, -1.2860000000000001E-11
DataValue, -8.4, 0.1, 2.7380000000000003E-11, 8.1900000000000013E-12
DataValue, -8.35, 0.1, 5.7040000000000004E-11, 4.249E-11
DataValue, -8.3, 0.1, 2.74E-12, 3.75E-11
DataValue, -8.25, 0.1, -1.7200000000000001E-12, -3.91E-12
DataValue, -8.2, 0.1, -5.678E-11, -2.2280000000000003E-11
DataValue, -8.15, 0.1, -4.38E-12, -5.3920000000000006E-11
DataValue, -8.1, 0.1, -1.02E-12, -3.7900000000000006E-12
DataValue, -8.05, 0.1, 3.915E-11, 1.0910000000000001E-11
DataValue, -8, 0.1, 4.767E-11, 4.967E-11
DataValue, -7.95, 0.1, 7.100000000000001E-13, 2.6500000000000002E-11
DataValue, -7.9, 0.1, -5.4600000000000006E-12, -5.54E-12
DataValue, -7.8500000000000005, 0.1, -6.096E-11, -3.1590000000000004E-11
DataValue, -7.8, 0.1, -2.2700000000000002E-12, -4.865E-11
DataValue, -7.75, 0.1, 6.5000000000000006E-13, 1.3500000000000001E-12
DataValue, -7.7, 0.1, 4.9580000000000005E-11, 1.4270000000000001E-11
DataValue, -7.65, 0.1, 2.931E-11, 5.3980000000000004E-11
DataValue, -7.6000000000000005, 0.1, 3.25E-12, 1.65E-11
DataValue, -7.55, 0.1, -1.3260000000000001E-11, -7.2500000000000008E-12
DataValue, -7.5, 0.1, -6.1970000000000007E-11, -3.874E-11
DataValue, -7.45, 0.1, -6.7000000000000007E-13, -4.2890000000000006E-11
DataValue, -7.4, 0.1, 8.5000000000000011E-13, 2.4800000000000003E-12
DataValue, -7.3500000000000005, 0.1, 5.6730000000000007E-11, 1.9090000000000002E-11
DataValue, -7.3, 0.1, 1.509E-11, 5.484E-11
DataValue, -7.25, 0.1, 2.4000000000000004E-13, 5.85E-12
DataValue, -7.2, 0.1, -3.015E-11, -9.66E-12
DataValue, -7.15, 0.1, -5.1480000000000006E-11, -4.763E-11
DataValue, -7.1000000000000005, 0.1, -2.8300000000000003E-12, -3.47E-11
DataValue, -7.05, 0.1, 5.1E-13, 3.7900000000000006E-12
DataValue, -7, 0.1, 6.1470000000000008E-11, 2.5320000000000003E-11
DataValue, -6.95, 0.1, 3.3600000000000002E-12, 5.262E-11
DataValue, -6.9, 0.1, 2.4000000000000004E-13, 5.2E-13
DataValue, -6.8500000000000005, 0.1, -4.1970000000000005E-11, -1.221E-11
DataValue, -6.8, 0.1, -3.853E-11, -5.252E-11
DataValue, -6.75, 0.1, -1.41E-12, -2.1750000000000002E-11
DataValue, -6.7, 0.1, 9.63E-12, 5.7600000000000005E-12
DataValue, -6.65, 0.1, 6.316E-11, 3.379E-11
DataValue, -6.6000000000000005, 0.1, 1.4E-12, 4.6240000000000007E-11
DataValue, -6.55, 0.1, 1.6100000000000002E-12, -2.29E-12
DataValue, -6.5, 0.1, -5.219E-11, -1.513E-11
DataValue, -6.45, 0.1, -2.954E-11, -5.4210000000000006E-11
DataValue, -6.4, 0.1, 1.6000000000000003E-13, -1.668E-11
DataValue, -6.3500000000000005, 0.1, 1.6650000000000002E-11, 6.92E-12
DataValue, -6.3, 0.1, 6.063E-11, 3.7670000000000004E-11
DataValue, -6.25, 0.1, 3.48E-12, 4.2660000000000004E-11
DataValue, -6.2, 0.1, 7.8000000000000011E-13, -3.2200000000000004E-12
DataValue, -6.15, 0.1, -5.4940000000000006E-11, -1.75E-11
DataValue, -6.1000000000000005, 0.1, -2.169E-11, -5.5090000000000007E-11
DataValue, -6.05, 0.1, -7.8000000000000011E-13, -1.0920000000000001E-11
DataValue, -6, 0.1, 2.5720000000000003E-11, 8.16E-12
DataValue, -5.95, 0.1, 5.794E-11, 4.3200000000000003E-11
DataValue, -5.9, 0.1, 1.5800000000000001E-12, 3.934E-11
DataValue, -5.8500000000000005, 0.1, 1.04E-12, -3.2200000000000004E-12
DataValue, -5.8, 0.1, -5.7510000000000004E-11, -2.2370000000000003E-11
DataValue, -5.75, 0.1, -1.0090000000000001E-11, -5.4510000000000007E-11
DataValue, -5.7, 0.1, -9.1000000000000016E-13, -3.96E-12
DataValue, -5.65, 0.1, 3.792E-11, 1.029E-11
DataValue, -5.6000000000000005, 0.1, 4.643E-11, 4.8600000000000005E-11
DataValue, -5.55, 0.1, 1.8700000000000003E-12, 2.8810000000000002E-11
DataValue, -5.5, 0.1, -3.82E-12, -4.8600000000000007E-12
DataValue, -5.45, 0.1, -5.938E-11, -2.8830000000000002E-11
DataValue, -5.4, 0.1, -2.75E-12, -4.9950000000000006E-11
DataValue, -5.3500000000000005, 0.1, -4.2000000000000003E-13, 1.3300000000000002E-12
DataValue, -5.3, 0.1, 4.9800000000000005E-11, 1.3800000000000002E-11
DataValue, -5.25, 0.1, 3.084E-11, 3.3200000000000006E-11
DataValue, -5.2, 0.1, 9.9E-13, 4.7790000000000004E-11
DataValue, -5.15, 0.1, 2.64E-12, -1.95E-12
DataValue, -5.1000000000000005, 0.1, -5.2470000000000007E-11, -1.56E-11
DataValue, -5.05, 0.1, -2.9410000000000005E-11, -5.4720000000000006E-11
DataValue, -5, 0.1, -1.04E-12, -1.4650000000000002E-11
DataValue, -4.95, 0.1, 1.8050000000000002E-11, 7.6800000000000012E-12
DataValue, -4.9, 0.1, 6.0090000000000009E-11, 4.0360000000000003E-11
DataValue, -4.8500000000000005, 0.1, 3.1600000000000003E-12, 4.003E-11
DataValue, -4.8, 0.1, -1.8000000000000002E-13, -3.6900000000000006E-12
DataValue, -4.75, 0.1, -5.7860000000000008E-11, -2.0150000000000003E-11
DataValue, -4.7, 0.1, -1.199E-11, -5.5050000000000006E-11
DataValue, -4.65, 0.1, -1.4800000000000002E-12, -6.3200000000000005E-12
DataValue, -4.6000000000000005, 0.1, 3.044E-11, 9.35E-12
DataValue, -4.55, 0.1, 5.1250000000000004E-11, 4.6520000000000005E-11
DataValue, -4.5, 0.1, 2.0200000000000003E-12, 3.3480000000000004E-11
DataValue, -4.45, 0.1, -3.43E-12, -4.41E-12
DataValue, -4.4, 0.1, -6.0280000000000011E-11, -2.6380000000000004E-11
DataValue, -4.3500000000000005, 0.1, -1.4900000000000001E-12, -5.105E-11
DataValue, -4.3, 0.1, -2.51E-12, 1.4200000000000002E-12
DataValue, -4.25, 0.1, 4.676E-11, 1.361E-11
DataValue, -4.2, 0.1, 3.4720000000000004E-11, 5.4710000000000004E-11
DataValue, -4.15, 0.1, 3.5E-13, 2.1350000000000003E-11
DataValue, -4.1, 0.1, -8.0800000000000011E-12, -4.6400000000000004E-12
DataValue, -4.05, 0.1, -6.244E-11, -3.3260000000000003E-11
DataValue, -4, 0.1, -2.2500000000000003E-12, -4.6530000000000006E-11
DataValue, -3.95, 0.1, 1.32E-12, 3.15E-12
DataValue, -3.9, 0.1, 5.6950000000000008E-11, 1.797E-11
DataValue, -3.85, 0.1, 2.0260000000000003E-11, 5.5490000000000007E-11
DataValue, -3.8000000000000003, 0.1, 6.09E-12, 1.0100000000000001E-11
DataValue, -3.75, 0.1, -1.8220000000000003E-11, -7.5E-12
DataValue, -3.7, 0.1, -5.2630000000000003E-11, -4.078E-11
DataValue, -3.65, 0.1, 8.8000000000000013E-12, -3.9720000000000006E-11
DataValue, -3.6, 0.1, 1.3460000000000001E-11, 3.13E-12
DataValue, -3.5500000000000003, 0.1, 7.6300000000000011E-11, 2.129E-11
DataValue, -3.5, 0.1, 4.06E-11, 5.528E-11
DataValue, -3.45, 0.1, 3.8770000000000005E-11, 7.81E-12
DataValue, -3.4, 0.1, 2.045E-11, -8.85E-12
DataValue, -3.35, 0.1, 2.5160000000000003E-11, -4.7570000000000003E-11
DataValue, -3.3000000000000003, 0.1, 9.7390000000000012E-11, -2.8400000000000003E-11
DataValue, -3.25, 0.1, 1.4070000000000002E-10, 5.48E-12
DataValue, -3.2, 0.1, 2.5457000000000003E-10, 2.982E-11
DataValue, -3.15, 0.1, 2.6365E-10, 5.1360000000000004E-11
DataValue, -3.1, 0.1, 3.5980000000000004E-10, -7.4000000000000008E-13
DataValue, -3.0500000000000003, 0.1, 4.5027000000000004E-10, -1.3560000000000001E-11
DataValue, -3, 0.1, 6.4694E-10, -4.163E-11
DataValue, -2.95, 0.1, 9.0673E-10, -4.0660000000000005E-11
DataValue, -2.9, 0.1, 1.1845E-09, 2.028E-11
DataValue, -2.85, 0.1, 1.6259E-09, -5.09E-12
DataValue, -2.8000000000000003, 0.1, 2.2111E-09, -2.5920000000000003E-11
DataValue, -2.75, 0.1, 3.0376E-09, -5.3910000000000004E-11
DataValue, -2.7, 0.1, 4.1011E-09, -8.3000000000000014E-12
DataValue, -2.65, 0.1, 5.2595E-09, 7.85E-12
DataValue, -2.6, 0.1, 7.0183E-09, 3.664E-11
DataValue, -2.5500000000000003, 0.1, 8.8041E-09, 4.8700000000000004E-11
DataValue, -2.5, 0.1, 1.1174399999999998E-08, -5.1600000000000006E-12
DataValue, -2.45, 0.1, 1.4124399999999998E-08, -1.097E-11
DataValue, -2.4, 0.1, 1.7609999999999997E-08, -1.533E-11
DataValue, -2.35, 0.1, 2.16784E-08, -2.1910000000000002E-11
DataValue, -2.3000000000000003, 0.1, 2.6407399999999998E-08, -2.7900000000000002E-11
DataValue, -2.25, 0.1, 3.1735799999999996E-08, -3.5130000000000006E-11
DataValue, -2.2, 0.1, 3.7461399999999996E-08, -4.0630000000000006E-11
DataValue, -2.15, 0.1, 4.41536E-08, -4.571E-11
DataValue, -2.1, 0.1, 5.1328399999999997E-08, -4.887E-11
DataValue, -2.05, 0.1, 5.9070999999999993E-08, -5.0960000000000004E-11
DataValue, -2, 0.1, 6.75998E-08, -5.343E-11
DataValue, -1.95, 0.1, 7.67072E-08, -5.4560000000000003E-11
DataValue, -1.9000000000000001, 0.1, 8.6521799999999988E-08, -5.499E-11
DataValue, -1.85, 0.1, 9.7022399999999989E-08, -5.459E-11
DataValue, -1.8, 0.1, 1.0832479999999999E-07, -5.2720000000000006E-11
DataValue, -1.75, 0.1, 1.2001999999999999E-07, -2.6E-13
DataValue, -1.7, 0.1, 1.3296E-07, 2.334E-11
DataValue, -1.6500000000000001, 0.1, 1.4622E-07, 4.083E-11
DataValue, -1.6, 0.1, 1.6056E-07, -6.8500000000000009E-12
DataValue, -1.55, 0.1, 1.757E-07, -5.342E-11
DataValue, -1.5, 0.1, 1.9238E-07, 1.3000000000000001E-12
DataValue, -1.45, 0.1, 2.0951999999999999E-07, 2.5770000000000002E-11
DataValue, -1.4000000000000001, 0.1, 2.2718E-07, 3.59E-11
DataValue, -1.35, 0.1, 2.4636E-07, -7.95E-12
DataValue, -1.3, 0.1, 2.6599999999999997E-07, -5.5160000000000006E-11
DataValue, -1.25, 0.1, 2.8736E-07, 2.49E-12
DataValue, -1.2, 0.1, 3.0922E-07, 3.179E-11
DataValue, -1.1500000000000001, 0.1, 3.3198E-07, 2.622E-11
DataValue, -1.1, 0.1, 3.5698E-07, -1.0820000000000001E-11
DataValue, -1.05, 0.1, 3.811E-07, -5.412E-11
DataValue, -1, 0.1, 4.0758E-07, 3.3600000000000002E-12
DataValue, -0.95000000000000007, 0.1, 4.349E-07, 3.9570000000000005E-11
DataValue, -0.9, 0.1, 4.6408E-07, 1.73E-11
DataValue, -0.85, 0.1, 4.9192E-07, -1.3750000000000001E-11
DataValue, -0.8, 0.1, 5.232E-07, -5.0520000000000004E-11
DataValue, -0.75, 0.1, 5.5365999999999994E-07, 4.89E-12
DataValue, -0.70000000000000007, 0.1, 5.8528E-07, 4.7320000000000004E-11
DataValue, -0.65, 0.1, 6.1764E-07, 7.94E-12
DataValue, -0.6, 0.1, 6.5022E-07, -1.7400000000000003E-11
DataValue, -0.55, 0.1, 6.8282E-07, -4.5720000000000005E-11
DataValue, -0.5, 0.1, 7.1648E-07, 6.0300000000000008E-12
DataValue, -0.45, 0.1, 7.5085999999999994E-07, 5.2650000000000007E-11
DataValue, -0.4, 0.1, 7.8436E-07, 3.0800000000000002E-12
DataValue, -0.35000000000000003, 0.1, 8.1994E-07, -2.0970000000000003E-11
DataValue, -0.3, 0.1, 8.5459999999999994E-07, -4.156E-11
DataValue, -0.25, 0.1, 8.8882E-07, 7.81E-12
DataValue, -0.2, 0.1, 9.2468E-07, 5.415E-11
DataValue, -0.15, 0.1, 9.5976E-07, -1E-12
DataValue, -0.1, 0.1, 9.9554E-07, -2.6980000000000003E-11
DataValue, -0.05, 0.1, 1.03094E-06, -3.103E-11
DataValue, 0, 0.1, 1.06646E-06, 8.94E-12
DataValue, 0.05, 0.1, 1.10202E-06, 5.5550000000000005E-11
DataValue, 0.1, 0.1, 1.13756E-06, -1.85E-12
DataValue, 0.15, 0.1, 1.1737E-06, 2.1200000000000003E-12
DataValue, 0.2, 0.1, 1.2090000000000002E-06, 2.1990000000000003E-11
DataValue, 0.25, 0.1, 1.2444E-06, 4.9770000000000006E-11
DataValue, 0.3, 0.1, 1.2804E-06, -2.75E-12
DataValue, 0.35000000000000003, 0.1, 1.3159000000000002E-06, -3.034E-11
DataValue, 0.4, 0.1, 1.3515E-06, -3.7490000000000004E-11
DataValue, 0.45, 0.1, 1.3877E-06, 6.41E-12
DataValue, 0.5, 0.1, 1.4232000000000002E-06, 4.606E-11
DataValue, 0.55, 0.1, 1.4587000000000001E-06, 2.021E-11
DataValue, 0.6, 0.1, 1.4947E-06, -9.15E-12
DataValue, 0.65, 0.1, 1.5309000000000002E-06, -5.3870000000000004E-11
DataValue, 0.70000000000000007, 0.1, 1.5663000000000002E-06, -5.04E-12
DataValue, 0.75, 0.1, 1.6030000000000002E-06, 1.5050000000000002E-11
DataValue, 0.8, 0.1, 1.639E-06, 5.4640000000000005E-11
DataValue, 0.85, 0.1, 1.6748000000000003E-06, -1.6100000000000002E-12
DataValue, 0.9, 0.1, 1.7116000000000003E-06, -2.3210000000000003E-11
DataValue, 0.95000000000000007, 0.1, 1.7477000000000002E-06, -4.552E-11
DataValue, 1, 0.1, 1.7839000000000002E-06, 4.5000000000000006E-12
DataValue, 1.05, 0.1, 1.8210000000000002E-06, 3.628E-11
DataValue, 1.1, 0.1, 1.8576000000000002E-06, 5.5230000000000006E-11
DataValue, 1.1500000000000001, 0.1, 1.8944000000000002E-06, -1.36E-12
DataValue, 1.2, 0.1, 1.9317E-06, -2.161E-11
DataValue, 1.25, 0.1, 1.9685000000000003E-06, -4.832E-11
DataValue, 1.3, 0.1, 2.0054000000000003E-06, 3.71E-12
