EXPLAIN
TAG	EISPOT
TITLE	LABEL	Potentiostatic EIS	Test &Identifier
DATE	LABEL	29-10-2009	Date
TIME	LABEL	22:52:59	Time
NOTES	NOTES	1	&Notes...
	
PSTAT	PSTAT	REF600-07089	Potentiostat
VDC	POTEN	0.00000E+000	F	DC &Voltage (V)
FREQINIT	QUANT	1.00000E+006	Initial Fre&q. (Hz)
FREQFINAL	QUANT	1.00000E+002	Final Fre&q. (Hz)
PTSPERDEC	QUANT	2.00000E+001	Points/&decade
VAC	QUANT	1.00000E+001	AC &Voltage (mV rms)
AREA	QUANT	1.26000E-001	&Area (cm^2)
CONDIT	TWOPARAM	F	2.00000E+001	5.00000E+000	Conditionin&g	Time(s)	E(V)
DELAY	TWOPARAM	T	2.50000E-001	0.00000E+000	Init. De&lay	Time(s)	Stab.(mV/s)
SPEED	SELECTOR	1	&Optimize for:
ZGUESS	QUANT	1.00000E+002	E&stimated Z (ohms)
OCVCURVE	TABLE	1
	Pt	T	Vf	Vm	Ach	Over
	#	s	V vs. Ref.	V	V	bits
	0	0.258333	-1.06094E+000	0.00000E+000	5.92085E-004	.............
EOC	QUANT	-1.06094	Open Circuit (V)
PSTATMODEL	IQUANT	4	Pstat Model
PSTATSECTION	LABEL	REF600-07089	Pstat Section
PSTATSERIALNO	LABEL	07089	Pstat Serial Number
CTRLMODE	IQUANT	1	Control Mode
IESTAB	IQUANT	0	I/E Stability
CASPEED	IQUANT	1	Control Amp Speed
CONVENTION	IQUANT	1	Current Convention
ICHRANGE	IQUANT	2	Ich Range
ICHRANGEMODE	TOGGLE	F	Ich Auto Range
ICHOFFSETENABLE	TOGGLE	T	Ich Offset Enable
ICHOFFSET	QUANT	0	Ich Offset (V)
ICHFILTER	IQUANT	3	Ich Filter
VCHRANGE	IQUANT	2	Vch Range
VCHRANGEMODE	TOGGLE	F	Vch Auto Range
VCHOFFSETENABLE	TOGGLE	T	Vch Offset Enable
VCHOFFSET	QUANT	0	Vch Offset (V)
VCHFILTER	IQUANT	3	Vch Filter
ACHRANGE	IQUANT	2	Ach Range
ACHOFFSETENABLE	TOGGLE	F	Ach Offset Enable
ACHOFFSET	QUANT	0	Ach Offset (V)
ACHFILTER	IQUANT	1	Ach Filter
IERANGELOWERLIMIT	IQUANT	1	I/E Range Lower Limit
IERANGEMODE	TOGGLE	F	I/E AutoRange
IERANGE	IQUANT	10	I/E Range
POSFEEDENABLE	TOGGLE	F	Positive Feedback IR Comp
POSFEEDRESISTANCE	QUANT	0	Positive Feedback Resistance (ohm)
ACHSELECT	IQUANT	0	Ach Select
CABLEID	IQUANT	14	Cable ID
DCCALDATE	LABEL	14-4-2009	DC Calibration Date
ACCALDATE	LABEL	14-4-2009	AC Calibration Date
THERMOSELECT	IQUANT	0	Thermo Select
FRAMEWORKVERSION	QUANT	5.5	Framework Version
INSTRUMENTVERSION	LABEL	2.00	Instrument Version
ZCURVE	TABLE
	Pt	Time	Freq	Zreal	Zimag	Zsig	Zmod	Zphz	Idc	Vdc	IERange
	#	s	Hz	ohm	ohm	V	ohm	°	A	V	#
	0	5	1.00008E+006	410.319	-71.6379	1	416.526	-9.9035	-1.19254E-007	5.08628E-005	9
	1	6	891328	411.805	-71.1483	1	417.906	-9.8023	-1.26129E-007	5.14232E-005	9
	2	7	794391	413.603	-71.7965	1	419.788	-9.8477	-4.15954E-008	0.0001	9
	3	9	707953	414.023	-73.4521	1	420.488	-10.0602	4.07685E-008	0.000188	9
	4	10	630984	415.186	-75.6402	1	422.02	-10.3251	1.08878E-008	0.000243	9
	5	11	562359	416.585	-79.2012	1	424.047	-10.7646	-8.70431E-008	0.000096	9
	6	13	501234	417.699	-83.5728	1	425.978	-11.3143	-5.07246E-008	0.00022	9
	7	15	446766	419.038	-88.9454	1	428.374	-11.9838	-5.60478E-009	0.000126	9
	8	16	398109	419.772	-95.996	1	430.608	-12.8812	1.82405E-007	0.000096	9
	9	17	354891	421.057	-102.012	1	433.238	-13.619	-1.3951E-007	0.000185	9
	10	19	316266	422.066	-111.067	1	436.435	-14.7432	1.62337E-007	0.000298	9
	11	20	281859	423.939	-120.937	1	440.852	-15.9219	-8.25812E-008	0.000115	9
	12	22	251203	424.612	-132.81	1	444.898	-17.3686	4.25234E-008	0.000223	9
	13	23	223922	426.317	-144.78	1	450.231	-18.7578	8.07459E-008	0.000228	9
	14	24	199547	427.183	-158.398	1	455.604	-20.3446	-1.81556E-007	0.000173	9
	15	26	177891	427.2	-174.923	1	461.625	-22.2673	-6.27118E-008	0.000254	9
	16	27	158578	429.215	-192.991	1	470.607	-24.2104	-6.81627E-008	0.000221	9
	17	29	141328	430.757	-214.043	1	481.005	-26.4228	-1.0162E-007	0.000173	9
	18	30	125953	431.629	-238.305	1	493.044	-28.9033	9.32197E-009	0.000245	9
	19	31	112266	432.323	-265.155	1	507.159	-31.5219	1.42689E-007	0.000277	9
	20	33	100078	433.038	-295.37	1	524.181	-34.2975	1.10426E-007	0.00023	8
	21	34	89203.1	434.473	-329.311	1	545.172	-37.1605	1.32774E-007	0.00024	8
	22	35	79453.1	436.201	-367.185	1	570.172	-40.09	1.04454E-007	0.000237	8
	23	37	70828.1	438.026	-409.449	1	599.596	-43.0687	7.07262E-008	0.000223	8
	24	38	63140.6	440.114	-457.026	1	634.486	-46.08	4.49174E-008	0.000191	8
	25	40	56296.9	442.591	-510.757	1	675.839	-49.0898	1.07315E-007	0.000238	8
	26	41	50203.1	445.828	-571.091	1	724.505	-52.0222	9.68249E-008	0.000236	8
	27	42	44671.9	449.703	-638.201	1	780.726	-54.8298	3.82289E-008	0.000187	8
	28	44	39890.6	454.071	-713.56	1	845.783	-57.5295	8.62996E-008	0.000235	8
	29	45	35484.4	458.749	-799.143	1	921.456	-60.142	5.20327E-008	0.000193	8
	30	47	31640.6	464.935	-893.14	1	1006.91	-62.5002	9.05568E-008	0.000235	8
	31	49	28265.6	472.445	-997.03	1	1103.31	-64.6461	7.19975E-008	0.000237	8
	32	50	25171.9	483.372	-1115.38	1	1215.61	-66.5695	2.00596E-008	0.000184	8
	33	51	22453.1	491.976	-1245.3	1	1338.96	-68.4427	8.44456E-008	0.00024	8
	34	53	20015.6	505.316	-1391.62	1	1480.53	-70.0434	5.91338E-008	0.000209	8
	35	54	17859.4	521.331	-1552.44	1	1637.64	-71.4372	5.77643E-008	0.000231	8
	36	55	15890.6	541.242	-1736.84	1	1819.22	-72.6917	2.22216E-008	0.000187	8
	37	57	14203.1	561.955	-1929.91	1	2010.06	-73.7654	1.8973E-008	0.000204	8
	38	58	12609.4	591.494	-2163.16	1	2242.57	-74.7069	1.24852E-008	0.000183	8
	39	60	11296.9	611.534	-2394.78	1	2471.62	-75.675	3.17118E-008	0.000217	8
	40	61	10078.1	647.009	-2660.74	1	2738.27	-76.3327	2.92454E-008	0.000192	8
	41	62	8953.12	668.914	-2979.2	1	3053.37	-77.3454	6.58364E-008	0.000246	8
	42	64	8015.62	711.798	-3289.22	1	3365.36	-77.7893	7.76847E-008	0.000239	8
	43	65	7031.25	731.124	-3704.79	1	3776.24	-78.8364	6.92112E-008	0.000238	8
	44	67	6328.13	786.601	-4091.65	1	4166.57	-79.1179	7.19154E-008	0.000225	8
	45	68	5671.88	812.096	-4516.65	1	4589.08	-79.8071	8.51798E-008	0.000241	8
	46	69	5015.63	890.929	-5064.62	1	5142.39	-80.023	2.44016E-008	0.000205	8
	47	71	4457.72	907.509	-5643.7	1	5716.2	-80.865	8.01789E-009	0.000218	7
	48	72	3984.38	935.93	-6287.87	1	6357.14	-81.5339	1.03713E-008	0.000227	7
	49	74	3538.6	980.11	-6987.08	1	7055.49	-82.015	4.92328E-010	0.000203	7
	50	75	3170.96	990.13	-7778.73	1	7841.49	-82.746	2.21642E-008	0.000232	7
	51	76	2803.31	1079.62	-8729.27	1	8795.78	-82.9496	2.08536E-009	0.000199	7
	52	78	2527.57	1053.98	-9588.4	1	9646.2	-83.7271	7.54118E-009	0.000224	7
	53	79	2251.84	1111.99	-10729.7	1	10787.2	-84.0832	1.65861E-008	0.000227	7
	54	81	1976.1	1080.78	-12192	1	12239.8	-84.9342	1.5645E-008	0.000225	7
	55	83	1792.28	1228.88	-13411.5	1	13467.7	-84.7647	-1.92433E-009	0.000198	7
	56	84	1577.52	1171.57	-15187.2	1	15232.3	-85.5888	6.38347E-009	0.000212	7
	57	86	1424.63	1279.83	-16786.8	1	16835.5	-85.6402	2.16232E-009	0.000206	7
	58	87	1265.63	1215.62	-18874.4	1	18913.5	-86.3149	1.51425E-008	0.000214	7
	59	89	1126.8	1033.9	-21078.6	1	21103.9	-87.1919	1.74184E-008	0.00023	7
	60	91	998.26	1363.08	-24072.9	1	24111.5	-86.7592	-5.66736E-009	0.000195	7
	61	92	894.886	1476.11	-26373.6	1	26414.9	-86.7965	1.29956E-008	0.000229	7
	62	94	796.875	1231.13	-29961.3	1	29986.6	-87.647	9.75264E-009	0.000217	7
	63	95	711.496	1358.68	-33124.3	1	33152.1	-87.6512	2.16933E-009	0.000201	7
	64	97	627.79	1526.59	-37433.8	1	37465	-87.6647	2.11093E-009	0.000196	7
	65	98	564.236	1712.96	-42029.5	1	42064.4	-87.6661	-4.38602E-009	0.000185	7
	66	99	505.515	878.672	-47272.3	1	47280.4	-88.9351	6.12941E-009	0.00021	7
	67	101	444.504	1606.96	-52854.9	1	52879.3	-88.2586	5.11178E-009	0.000203	7
	68	102	397.995	1669.62	-59002.5	1	59026.2	-88.3791	6.95975E-010	0.000204	6
	69	104	357.521	1748.96	-65634.8	1	65658.1	-88.4736	6.23517E-010	0.000203	6
	70	105	315.505	1843.29	-74322.1	1	74344.9	-88.5793	6.53653E-010	0.000206	6
	71	106	282.866	1947.35	-82849.6	1	82872.4	-88.6535	6.59633E-010	0.0002	6
	72	108	252.404	2083.53	-92810.3	1	92833.7	-88.714	7.1178E-010	0.000202	6
	73	109	225.361	2219.81	-103851	1	103874	-88.7755	6.29987E-010	0.000209	6
	74	111	198.623	2423.45	-117739	1	117763	-88.8208	6.55562E-010	0.000207	6
	75	112	177.557	2618.94	-131646	1	131672	-88.8603	6.08789E-010	0.000204	6
	76	114	158.361	2877.9	-147441	1	147469	-88.8818	5.91426E-010	0.000202	6
	77	115	141.19	3197.79	-165363	1	165394	-88.8922	5.04714E-010	0.000202	6
	78	117	125.558	3540.55	-185752	1	185785	-88.908	5.17862E-010	0.000202	6
	79	118	111.607	4003.13	-208866	1	208904	-88.902	5.39279E-010	0.000208	6
	80	119	100.446	4476.03	-231825	1	231868	-88.8939	5.69259E-010	0.000206	6
