EXPLAIN
TAG	EISPOT
TITLE	LABEL	Potentiostatic EIS	Test &Identifier
DATE	LABEL	9-11-2009	Date
TIME	LABEL	19:02:34	Time
NOTES	NOTES	1	&Notes...
	
PSTAT	PSTAT	REF600-07089	Potentiostat
VDC	POTEN	0.00000E+000	F	DC &Voltage (V)
FREQINIT	QUANT	1.00000E+006	Initial Fre&q. (Hz)
FREQFINAL	QUANT	1.00000E-002	Final Fre&q. (Hz)
PTSPERDEC	QUANT	5.00000E+000	Points/&decade
VAC	QUANT	1.00000E+001	AC &Voltage (mV rms)
AREA	QUANT	1.26000E-001	&Area (cm^2)
CONDIT	TWOPARAM	F	2.00000E+001	5.00000E+000	Conditionin&g	Time(s)	E(V)
DELAY	TWOPARAM	T	2.50000E-001	0.00000E+000	Init. De&lay	Time(s)	Stab.(mV/s)
SPEED	SELECTOR	1	&Optimize for:
ZGUESS	QUANT	1.00000E+002	E&stimated Z (ohms)
OCVCURVE	TABLE	1
	Pt	T	Vf	Vm	Ach	Over
	#	s	V vs. Ref.	V	V	bits
	0	0.258333	3.56018E-001	0.00000E+000	9.39340E-006	.............
EOC	QUANT	0.356018	Open Circuit (V)
PSTATMODEL	IQUANT	4	Pstat Model
PSTATSECTION	LABEL	REF600-07089	Pstat Section
PSTATSERIALNO	LABEL	07089	Pstat Serial Number
CTRLMODE	IQUANT	1	Control Mode
IESTAB	IQUANT	0	I/E Stability
CASPEED	IQUANT	1	Control Amp Speed
CONVENTION	IQUANT	1	Current Convention
ICHRANGE	IQUANT	2	Ich Range
ICHRANGEMODE	TOGGLE	F	Ich Auto Range
ICHOFFSETENABLE	TOGGLE	T	Ich Offset Enable
ICHOFFSET	QUANT	0	Ich Offset (V)
ICHFILTER	IQUANT	3	Ich Filter
VCHRANGE	IQUANT	2	Vch Range
VCHRANGEMODE	TOGGLE	F	Vch Auto Range
VCHOFFSETENABLE	TOGGLE	T	Vch Offset Enable
VCHOFFSET	QUANT	0	Vch Offset (V)
VCHFILTER	IQUANT	3	Vch Filter
ACHRANGE	IQUANT	2	Ach Range
ACHOFFSETENABLE	TOGGLE	F	Ach Offset Enable
ACHOFFSET	QUANT	0	Ach Offset (V)
ACHFILTER	IQUANT	3	Ach Filter
IERANGELOWERLIMIT	IQUANT	1	I/E Range Lower Limit
IERANGEMODE	TOGGLE	F	I/E AutoRange
IERANGE	IQUANT	10	I/E Range
POSFEEDENABLE	TOGGLE	F	Positive Feedback IR Comp
POSFEEDRESISTANCE	QUANT	0	Positive Feedback Resistance (ohm)
ACHSELECT	IQUANT	0	Ach Select
CABLEID	IQUANT	14	Cable ID
DCCALDATE	LABEL	14-4-2009	DC Calibration Date
ACCALDATE	LABEL	14-4-2009	AC Calibration Date
THERMOSELECT	IQUANT	0	Thermo Select
FRAMEWORKVERSION	QUANT	5.5	Framework Version
INSTRUMENTVERSION	LABEL	2.00	Instrument Version
ZCURVE	TABLE
	Pt	Time	Freq	Zreal	Zimag	Zsig	Zmod	Zphz	Idc	Vdc	IERange
	#	s	Hz	ohm	ohm	V	ohm	°	A	V	#
	0	5	1.00008E+006	490.9	-82.0046	1	497.702	-9.48367	4.76864E-008	0.000352	8
	1	6	630984	501.028	-75.2829	1	506.652	-8.54516	-1.81551E-007	0.000392	9
	2	8	398109	503.506	-102.028	1	513.74	-11.455	1.2836E-007	0.000436	8
	3	9	251203	509.902	-138.263	1	528.315	-15.1713	1.60332E-007	0.000546	8
	4	11	158578	516.557	-198.783	1	553.485	-21.0479	1.20124E-007	0.000531	8
	5	12	100078	523.03	-297.764	1	601.85	-29.6531	6.82245E-008	0.000515	8
	6	13	63140.6	530.576	-458.872	1	701.48	-40.8551	6.19633E-008	0.00049	8
	7	15	39890.6	542.982	-714.635	1	897.514	-52.7723	5.56086E-008	0.000486	8
	8	16	25171.9	570.495	-1117.21	1	1254.44	-62.9493	5.69063E-008	0.000487	8
	9	18	15890.6	624.24	-1743.77	1	1852.14	-70.3035	8.69764E-008	0.000515	8
	10	19	10078.1	726.323	-2687.8	1	2784.2	-74.8782	1.02801E-007	0.000543	8
	11	21	6328.13	899.839	-4125.11	1	4222.11	-77.6944	3.86273E-008	0.000492	8
	12	22	3984.38	1077.78	-6304.1	1	6395.57	-80.2982	4.52089E-008	0.00049	8
	13	24	2527.57	1299.13	-9669.6	1	9756.5	-82.348	1.38786E-008	0.000528	7
	14	25	1577.52	1375.79	-15150.1	1	15212.5	-84.8112	1.58245E-008	0.000531	7
	15	27	998.26	1536.87	-23794.4	1	23843.9	-86.3044	1.46246E-008	0.000523	7
	16	28	627.79	2420.37	-37286.3	1	37364.8	-86.286	2.46165E-009	0.000497	7
	17	29	397.995	2363.98	-58667	1	58714.6	-87.6925	9.04477E-009	0.000511	7
	18	31	252.404	3273.36	-92037	1	92095.2	-87.9631	1.05236E-009	0.0005	6
	19	32	158.361	5084.73	-145736	1	145825	-88.0018	1.03585E-009	0.000499	6
	20	34	100.446	8394.1	-228012	1	228167	-87.8916	1.04948E-009	0.0005	6
	21	35	63.3446	14530.8	-357768	1	358063	-87.6742	1.01646E-009	0.000499	6
	22	36	39.7246	24555	-563167	1	563702	-87.5034	8.83255E-010	0.000501	6
	23	38	24.9335	45058.1	-886521	1	887665	-87.0904	-2.69227E-011	0.000474	5
	24	39	15.8361	73445.2	-1.37287E+006	1	1.37484E+006	-86.9377	-2.46242E-011	0.000477	5
	25	41	9.9311	124384	-2.15426E+006	1	2.15784E+006	-86.6955	-9.27225E-012	0.000477	5
	26	42	6.31739	205580	-3.31918E+006	1	3.32554E+006	-86.4558	-1.41804E-011	0.000468	5
	27	44	3.94571	344237	-5.21194E+006	1	5.22329E+006	-86.2212	2.5273E-011	0.000479	5
	28	46	2.50401	556951	-8.05515E+006	1	8.07438E+006	-86.0447	3.14814E-012	0.000448	4
	29	49	1.58469	862520	-1.24474E+007	1	1.24772E+007	-86.0361	4.21064E-012	0.000428	4
	30	52	0.99904	1.33409E+006	-1.93268E+007	1	1.93728E+007	-86.0512	4.93963E-012	2.22925E-005	4
	31	55	0.633446	1.97301E+006	-2.98222E+007	1	2.98873E+007	-86.2149	5.92507E-012	1.85454E-005	4
	32	59	0.400641	2.98204E+006	-4.62158E+007	1	4.63119E+007	-86.3082	8.12828E-012	1.82274E-005	4
	33	66	0.252016	4.40812E+006	-7.22351E+007	1	7.23695E+007	-86.5079	1.096E-011	1.79958E-005	4
	34	75	0.158898	6.80341E+006	-1.12883E+008	1	1.13087E+008	-86.551	1.63971E-012	3.03795E-005	3
	35	88	0.10016	1.06163E+007	-1.76261E+008	1	1.7658E+008	-86.5532	2.44841E-012	2.8642E-005	3
	36	110	0.063174	1.68906E+007	-2.74948E+008	1	2.75467E+008	-86.4846	3.40155E-012	2.46542E-005	3
	37	143	0.039826	2.64138E+007	-4.28862E+008	1	4.29674E+008	-86.4756	4.09461E-012	2.32258E-005	3
	38	195	0.025121	4.44485E+007	-6.70664E+008	1	6.72135E+008	-86.2082	4.67165E-012	2.17426E-005	3
	39	276	0.015852	7.5936E+007	-1.0679E+009	1	1.0706E+009	-85.9327	3.49556E-012	1.21065E-005	2
	40	404	0.010001	1.27648E+008	-1.6644E+009	1	1.66929E+009	-85.6144	3.74088E-012	2.26351E-005	2
