EXPLAIN
TAG	EISPOT
TITLE	LABEL	Potentiostatic EIS	Test &Identifier
DATE	LABEL	9-11-2009	Date
TIME	LABEL	18:59:00	Time
NOTES	NOTES	1	&Notes...
	
PSTAT	PSTAT	REF600-07089	Potentiostat
VDC	POTEN	0.00000E+000	F	DC &Voltage (V)
FREQINIT	QUANT	1.00000E+006	Initial Fre&q. (Hz)
FREQFINAL	QUANT	1.00000E-001	Final Fre&q. (Hz)
PTSPERDEC	QUANT	5.00000E+000	Points/&decade
VAC	QUANT	1.00000E+001	AC &Voltage (mV rms)
AREA	QUANT	1.26000E-001	&Area (cm^2)
CONDIT	TWOPARAM	F	2.00000E+001	5.00000E+000	Conditionin&g	Time(s)	E(V)
DELAY	TWOPARAM	T	2.50000E-001	0.00000E+000	Init. De&lay	Time(s)	Stab.(mV/s)
SPEED	SELECTOR	1	&Optimize for:
ZGUESS	QUANT	1.00000E+002	E&stimated Z (ohms)
OCVCURVE	TABLE	1
	Pt	T	Vf	Vm	Ach	Over
	#	s	V vs. Ref.	V	V	bits
	0	0.258333	-1.42811E-001	0.00000E+000	-1.38062E-005	.............
EOC	QUANT	-0.142811	Open Circuit (V)
PSTATMODEL	IQUANT	4	Pstat Model
PSTATSECTION	LABEL	REF600-07089	Pstat Section
PSTATSERIALNO	LABEL	07089	Pstat Serial Number
CTRLMODE	IQUANT	1	Control Mode
IESTAB	IQUANT	0	I/E Stability
CASPEED	IQUANT	1	Control Amp Speed
CONVENTION	IQUANT	1	Current Convention
ICHRANGE	IQUANT	2	Ich Range
ICHRANGEMODE	TOGGLE	F	Ich Auto Range
ICHOFFSETENABLE	TOGGLE	T	Ich Offset Enable
ICHOFFSET	QUANT	0	Ich Offset (V)
ICHFILTER	IQUANT	3	Ich Filter
VCHRANGE	IQUANT	2	Vch Range
VCHRANGEMODE	TOGGLE	F	Vch Auto Range
VCHOFFSETENABLE	TOGGLE	T	Vch Offset Enable
VCHOFFSET	QUANT	0	Vch Offset (V)
VCHFILTER	IQUANT	3	Vch Filter
ACHRANGE	IQUANT	2	Ach Range
ACHOFFSETENABLE	TOGGLE	F	Ach Offset Enable
ACHOFFSET	QUANT	0	Ach Offset (V)
ACHFILTER	IQUANT	3	Ach Filter
IERANGELOWERLIMIT	IQUANT	1	I/E Range Lower Limit
IERANGEMODE	TOGGLE	F	I/E AutoRange
IERANGE	IQUANT	10	I/E Range
POSFEEDENABLE	TOGGLE	F	Positive Feedback IR Comp
POSFEEDRESISTANCE	QUANT	0	Positive Feedback Resistance (ohm)
ACHSELECT	IQUANT	0	Ach Select
CABLEID	IQUANT	14	Cable ID
DCCALDATE	LABEL	14-4-2009	DC Calibration Date
ACCALDATE	LABEL	14-4-2009	AC Calibration Date
THERMOSELECT	IQUANT	0	Thermo Select
FRAMEWORKVERSION	QUANT	5.5	Framework Version
INSTRUMENTVERSION	LABEL	2.00	Instrument Version
ZCURVE	TABLE
	Pt	Time	Freq	Zreal	Zimag	Zsig	Zmod	Zphz	Idc	Vdc	IERange
	#	s	Hz	ohm	ohm	V	ohm	°	A	V	#
	0	5	1.00008E+006	511.973	-81.2366	1	518.378	-9.01617	2.0076E-007	0.000497	8
	1	6	630984	518.467	-83.5806	1	525.161	-9.1577	1.50256E-007	0.000439	8
	2	7	398109	524.183	-101.532	1	533.926	-10.9622	2.42773E-007	0.000487	8
	3	9	251203	529.612	-138.006	1	547.297	-14.6053	1.28831E-007	0.000483	8
	4	10	158578	535.269	-198.121	1	570.758	-20.3112	8.1081E-008	0.000499	8
	5	12	100078	541.083	-297.618	1	617.534	-28.8126	7.12948E-008	0.000513	8
	6	13	63140.6	548.015	-458.752	1	714.684	-39.9332	6.31252E-008	0.000487	8
	7	14	39890.6	560.762	-714.211	1	908.048	-51.8628	5.79484E-008	0.000492	8
	8	16	25171.9	585.718	-1117.09	1	1261.33	-62.3308	5.58016E-008	0.00049	8
	9	17	15890.6	637.912	-1745.92	1	1858.81	-69.929	1.14501E-007	0.00054	8
	10	19	10078.1	742.752	-2686.8	1	2787.57	-74.5468	6.95343E-008	0.000496	8
	11	20	6328.13	898.055	-4138.44	1	4234.76	-77.7565	6.65553E-008	0.000489	8
	12	21	3984.38	1056.12	-6326.09	1	6413.64	-80.5221	9.08367E-008	0.000519	8
	13	23	2527.57	1257.09	-9673.1	1	9754.4	-82.5955	2.22021E-009	0.000497	7
	14	24	1577.52	1389.41	-15241.8	1	15305	-84.7915	2.34614E-008	0.000517	7
	15	26	998.26	1264.49	-23833.4	1	23866.9	-86.963	2.11444E-008	0.000517	7
	16	27	627.79	1719.65	-37748.4	1	37787.5	-87.3917	1.97655E-008	0.000519	7
	17	29	397.995	2339.02	-58778.2	1	58824.7	-87.7212	1.11027E-008	0.000494	7
	18	30	252.404	3252.51	-92240.7	1	92298	-87.9805	1.24894E-009	0.000498	6
	19	31	158.361	5083.56	-146078	1	146167	-88.0069	1.25119E-009	0.000495	6
	20	33	100.446	8430.31	-228471	1	228627	-87.8868	1.14564E-009	0.000498	6
	21	34	63.3446	14606.6	-358765	1	359062	-87.6686	1.207E-009	0.000494	6
	22	36	39.7246	24921.7	-563965	1	564516	-87.4697	1.08391E-009	0.000497	6
	23	37	24.9335	44512.6	-885767	1	886885	-87.1231	-7.57656E-012	0.000478	5
	24	39	15.8361	72871.1	-1.37228E+006	1	1.37421E+006	-86.9603	-2.59759E-011	0.000472	5
	25	40	9.9311	123603	-2.15663E+006	1	2.16017E+006	-86.7198	1.17285E-011	0.00047	5
	26	41	6.31739	208176	-3.32451E+006	1	3.33102E+006	-86.4169	-2.70954E-012	0.000474	5
	27	44	3.94571	346620	-5.22441E+006	1	5.23589E+006	-86.2042	3.65232E-011	0.000481	5
	28	46	2.50401	558366	-8.06475E+006	1	8.08405E+006	-86.0394	6.49419E-012	0.000447	4
	29	48	1.58469	871312	-1.24618E+007	1	1.24922E+007	-86.0005	8.2697E-012	0.00043	4
	30	51	0.99904	1.38398E+006	-1.93491E+007	1	1.93985E+007	-85.9088	8.53351E-012	1.84491E-005	4
	31	54	0.633446	2.0293E+006	-2.98645E+007	1	2.99333E+007	-86.1127	1.03383E-011	2.12367E-005	4
	32	59	0.400641	3.09356E+006	-4.62509E+007	1	4.63542E+007	-86.1734	1.23568E-011	1.92466E-005	4
	33	65	0.252016	4.66471E+006	-7.21513E+007	1	7.23019E+007	-86.3009	1.31449E-011	2.9253E-005	4
	34	74	0.158898	7.188E+006	-1.12687E+008	1	1.12916E+008	-86.3502	3.26522E-012	3.48011E-005	3
	35	88	0.10016	1.12545E+007	-1.75702E+008	1	1.76062E+008	-86.335	3.62289E-012	2.71697E-005	3
