EXPLAIN
TAG	EISPOT
TITLE	LABEL	Potentiostatic EIS	Test &Identifier
DATE	LABEL	9-11-2009	Date
TIME	LABEL	19:15:23	Time
NOTES	NOTES	1	&Notes...
	
PSTAT	PSTAT	REF600-07089	Potentiostat
VDC	POTEN	0.00000E+000	F	DC &Voltage (V)
FREQINIT	QUANT	1.00000E+006	Initial Fre&q. (Hz)
FREQFINAL	QUANT	1.00000E-003	Final Fre&q. (Hz)
PTSPERDEC	QUANT	5.00000E+000	Points/&decade
VAC	QUANT	1.00000E+001	AC &Voltage (mV rms)
AREA	QUANT	1.26000E-001	&Area (cm^2)
CONDIT	TWOPARAM	F	2.00000E+001	5.00000E+000	Conditionin&g	Time(s)	E(V)
DELAY	TWOPARAM	T	2.50000E-001	0.00000E+000	Init. De&lay	Time(s)	Stab.(mV/s)
SPEED	SELECTOR	1	&Optimize for:
ZGUESS	QUANT	1.00000E+002	E&stimated Z (ohms)
OCVCURVE	TABLE	1
	Pt	T	Vf	Vm	Ach	Over
	#	s	V vs. Ref.	V	V	bits
	0	0.258333	2.77261E-001	0.00000E+000	-6.90721E-005	.............
EOC	QUANT	0.277261	Open Circuit (V)
PSTATMODEL	IQUANT	4	Pstat Model
PSTATSECTION	LABEL	REF600-07089	Pstat Section
PSTATSERIALNO	LABEL	07089	Pstat Serial Number
CTRLMODE	IQUANT	1	Control Mode
IESTAB	IQUANT	0	I/E Stability
CASPEED	IQUANT	1	Control Amp Speed
CONVENTION	IQUANT	1	Current Convention
ICHRANGE	IQUANT	2	Ich Range
ICHRANGEMODE	TOGGLE	F	Ich Auto Range
ICHOFFSETENABLE	TOGGLE	T	Ich Offset Enable
ICHOFFSET	QUANT	0	Ich Offset (V)
ICHFILTER	IQUANT	3	Ich Filter
VCHRANGE	IQUANT	2	Vch Range
VCHRANGEMODE	TOGGLE	F	Vch Auto Range
VCHOFFSETENABLE	TOGGLE	T	Vch Offset Enable
VCHOFFSET	QUANT	0	Vch Offset (V)
VCHFILTER	IQUANT	3	Vch Filter
ACHRANGE	IQUANT	2	Ach Range
ACHOFFSETENABLE	TOGGLE	F	Ach Offset Enable
ACHOFFSET	QUANT	0	Ach Offset (V)
ACHFILTER	IQUANT	3	Ach Filter
IERANGELOWERLIMIT	IQUANT	1	I/E Range Lower Limit
IERANGEMODE	TOGGLE	F	I/E AutoRange
IERANGE	IQUANT	10	I/E Range
POSFEEDENABLE	TOGGLE	F	Positive Feedback IR Comp
POSFEEDRESISTANCE	QUANT	0	Positive Feedback Resistance (ohm)
ACHSELECT	IQUANT	0	Ach Select
CABLEID	IQUANT	14	Cable ID
DCCALDATE	LABEL	14-4-2009	DC Calibration Date
ACCALDATE	LABEL	14-4-2009	AC Calibration Date
THERMOSELECT	IQUANT	0	Thermo Select
FRAMEWORKVERSION	QUANT	5.5	Framework Version
INSTRUMENTVERSION	LABEL	2.00	Instrument Version
ZCURVE	TABLE
	Pt	Time	Freq	Zreal	Zimag	Zsig	Zmod	Zphz	Idc	Vdc	IERange
	#	s	Hz	ohm	ohm	V	ohm	°	A	V	#
	0	5	1.00008E+006	493.874	-73.6778	1	499.339	-8.485	-2.08627E-007	0.000352	9
	1	6	630984	497.821	-78.4394	1	503.963	-8.95421	-1.61772E-007	0.000388	9
	2	8	398109	500.132	-104.618	1	510.957	-11.8149	2.42695E-008	0.000316	8
	3	9	251203	506.732	-139.038	1	525.461	-15.3433	2.49062E-008	0.000416	8
	4	10	158578	513.467	-200.424	1	551.197	-21.3224	1.73802E-007	0.00055	8
	5	12	100078	520.237	-298.797	1	599.938	-29.8708	8.9834E-008	0.000492	8
	6	13	63140.6	527.86	-459.913	1	700.112	-41.065	8.83239E-008	0.000512	8
	7	15	39890.6	540.743	-715.003	1	896.456	-52.9005	9.97962E-008	0.000531	8
	8	16	25171.9	567.002	-1118.44	1	1253.95	-63.1168	8.63965E-008	0.000521	8
	9	17	15890.6	622.48	-1745.81	1	1853.47	-70.376	1.20075E-007	0.000535	8
	10	19	10078.1	715.937	-2688.84	1	2782.53	-75.0902	1.13809E-007	0.000546	8
	11	20	6328.13	873.304	-4117.54	1	4209.14	-78.0254	9.70188E-008	0.000516	8
	12	22	3984.38	1082.56	-6335.3	1	6427.13	-80.3031	8.00178E-008	0.000523	8
	13	23	2527.57	1280.22	-9649.7	1	9734.3	-82.4427	7.63096E-009	0.000506	7
	14	24	1577.52	1407.64	-15052.2	1	15117.8	-84.6574	1.84527E-008	0.000522	7
	15	26	998.26	1587.68	-23453.7	1	23507.4	-86.1273	1.13006E-008	0.000497	7
	16	28	627.79	2213.86	-37149.7	1	37215.6	-86.5896	1.25128E-009	0.000492	7
	17	29	397.995	2406.08	-58489.5	1	58539	-87.6444	9.79422E-009	0.000497	7
	18	30	252.404	3285.44	-91730.3	1	91789.1	-87.9488	1.18118E-009	0.000491	6
	19	32	158.361	5032.55	-145263	1	145350	-88.0158	1.1388E-009	0.000489	6
	20	33	100.446	8166	-227198	1	227344	-87.9415	1.16075E-009	0.000492	6
	21	35	63.3446	14491.7	-356732	1	357026	-87.6737	1.15135E-009	0.000492	6
	22	36	39.7246	23152	-560252	1	560730	-87.6336	1.02586E-009	0.000495	6
	23	37	24.9335	41745.4	-883700	1	884686	-87.2954	-2.16881E-011	0.000474	5
	24	39	15.8361	70673	-1.37082E+006	1	1.37264E+006	-87.0487	-2.45657E-011	0.00047	5
	25	40	9.9311	116126	-2.1473E+006	1	2.15044E+006	-86.9045	-3.42701E-012	0.000472	5
	26	42	6.31739	190237	-3.32429E+006	1	3.32973E+006	-86.7247	-7.76622E-012	0.000476	5
	27	44	3.94571	320017	-5.23566E+006	1	5.24543E+006	-86.5023	2.01359E-011	0.000472	5
	28	46	2.50401	523871	-8.09782E+006	1	8.11475E+006	-86.2985	6.54167E-012	0.000457	4
	29	49	1.58469	827683	-1.24952E+007	1	1.25226E+007	-86.2103	4.02172E-012	0.00046	4
	30	52	0.99904	1.29603E+006	-1.94404E+007	1	1.94836E+007	-86.1859	6.4779E-012	1.52328E-005	4
	31	55	0.633446	1.94563E+006	-3.0039E+007	1	3.01019E+007	-86.2941	7.43517E-012	1.96917E-005	4
	32	59	0.400641	2.85833E+006	-4.65695E+007	1	4.66571E+007	-86.4877	9.68174E-012	1.47485E-005	4
	33	66	0.252016	4.15367E+006	-7.27612E+007	1	7.28797E+007	-86.7327	1.15369E-011	1.50609E-005	4
	34	75	0.158898	6.53166E+006	-1.13809E+008	1	1.13996E+008	-86.7153	2.69049E-012	2.49511E-005	3
	35	89	0.10016	9.92067E+006	-1.7777E+008	1	1.78047E+008	-86.8059	3.2901E-012	1.40415E-005	3
	36	110	0.063174	1.57721E+007	-2.77682E+008	1	2.7813E+008	-86.7491	3.92827E-012	2.3491E-005	3
	37	143	0.039826	2.46581E+007	-4.32993E+008	1	4.33694E+008	-86.7406	4.48349E-012	2.26417E-005	3
	38	194	0.025121	3.85126E+007	-6.75297E+008	1	6.76394E+008	-86.7359	4.86266E-012	2.22312E-005	3
	39	275	0.015852	6.82842E+007	-1.07866E+009	1	1.08082E+009	-86.3777	3.60637E-012	1.25789E-005	2
	40	403	0.010001	1.17146E+008	-1.68684E+009	1	1.6909E+009	-86.0274	3.79501E-012	1.22431E-005	2
	41	605	0.00631	1.88923E+008	-2.63433E+009	1	2.64109E+009	-85.898	3.96354E-012	9.29111E-006	2
	42	923	0.003981	3.45288E+008	-4.10892E+009	1	4.1234E+009	-85.1965	4.03128E-012	1.10699E-005	2
	43	1427	0.002512	5.68188E+008	-6.43546E+009	1	6.46049E+009	-84.9544	4.07338E-012	2.12881E-006	2
	44	2224	0.001585	1.1995E+009	-1.19341E+010	1	1.19943E+010	-84.2605	2.87916E-012	-8.32428E-006	1
	45	3487	0.001	1.99315E+009	-1.87177E+010	1	1.88235E+010	-83.9218	2.8954E-012	-2.24798E-005	1
