
SetupTitle, Trf-initial
PrimitiveTest, I/V Sweep
TestParameter, Context.MainFrame, B1500A
TestParameter, Channel.UnitType, SMU, SMU, SMU
TestParameter, Channel.Unit, SMU4:MP, SMU1:HR, SMU2:HR
TestParameter, Channel.IName, Id, Ig, Is
TestParameter, Channel.VName, Vd, Vg, Vs
TestParameter, Channel.Mode, V, V, COMMON
TestParameter, Channel.Func, CONST, VAR1, CONST
TestParameter, Channel.Index, 
TestParameter, Channel.Time, 
TestParameter, Measurement.Port.Unit, SMU4:MP, SMU1:HR, SMU2:HR
TestParameter, Measurement.Port.SeriesResistor, NONE, NONE, NONE
TestParameter, Measurement.Port.Filter, ON, ON, ON
TestParameter, Measurement.Port.OutputVoltageComparison, 0, 0, 0
TestParameter, Measurement.Primary.Locus, Double
TestParameter, Measurement.Primary.Scale, LINEAR
TestParameter, Measurement.Primary.Start, -10
TestParameter, Measurement.Primary.Stop, 10
TestParameter, Measurement.Primary.Step, 0.2
TestParameter, Measurement.Primary.Compliance, 0.1
TestParameter, Measurement.Primary.PowerCompliance, 0
TestParameter, Measurement.Aborting.Condition, CONTINUE AT ANY
TestParameter, Measurement.PostOutput.Value, START
TestParameter, Measurement.PostOutput.Retention, OFF
TestParameter, Measurement.Bias.Source, 0.1, -10, 0
TestParameter, Measurement.Bias.Compliance, 0.1, 0.1, 0.1
TestParameter, Measurement.Monitor.Unit, SMU4:MP, SMU1:HR, SMU2:HR
TestParameter, Measurement.Monitor.Adc, HR ADC, HR ADC, HR ADC
TestParameter, Measurement.Monitor.Measurement, Compliance Side, Compliance Side, Compliance Side
TestParameter, Measurement.Monitor.RangingMode, LIMITED, LIMITED, LIMITED
TestParameter, Measurement.Monitor.RangeBoundary, 1nA, 1nA, 1nA
TestParameter, Measurement.Monitor.RangeRating, BY FULL RANGE, BY FULL RANGE, BY FULL RANGE
TestParameter, Measurement.Monitor.RangeRatingCoeff, 50, 50, 50
TestParameter, Measurement.Timing.Hold, 0
TestParameter, Measurement.Timing.Delay, 0
TestParameter, Measurement.Adc.HighSpeed.Mode, AUTO
TestParameter, Measurement.Adc.HighSpeed.Coeff, 1
TestParameter, Measurement.Adc.HighResolution.AutoZero, OFF
TestParameter, Measurement.Adc.HighResolution.Mode, AUTO
TestParameter, Measurement.Adc.HighResolution.Coeff, 6
TestParameter, Measurement.WaitTime.Source.Coeff, 1
TestParameter, Measurement.WaitTime.Source.Offset, 0
TestParameter, Measurement.WaitTime.Monitor.Coeff, 1
TestParameter, Measurement.WaitTime.Monitor.Offset, 0
TestParameter, Output.Graph.Enabled, true
TestParameter, Output.Graph.AutoScaling, false
TestParameter, Output.Graph.XAxis.Data, Vg
TestParameter, Output.Graph.XAxis.Scale, Linear
TestParameter, Output.Graph.XAxis.Left, -10
TestParameter, Output.Graph.XAxis.Right, 10
TestParameter, Output.Graph.XAxis.RunTimeAutoScale, true
TestParameter, Output.Graph.YAxis.Data, Id, Ig
TestParameter, Output.Graph.YAxis.Scale, Linear, Linear
TestParameter, Output.Graph.YAxis.Bottom, -0.1, -0.1
TestParameter, Output.Graph.YAxis.Top, 0.1, 0.1
TestParameter, Output.Graph.YAxis.Group, , 
TestParameter, Output.Graph.YAxis.RunTimeAutoScale, true, true
TestParameter, Output.Scalar.Data, Vd
TestParameter, AutoAnalysis.Interpolation, false
TestParameter, AutoAnalysis.Line1.Enabled, false
TestParameter, AutoAnalysis.Line1.Type, 1
TestParameter, AutoAnalysis.Line1.Fix, True
TestParameter, AutoAnalysis.Line1.YAxis, 0
TestParameter, AutoAnalysis.Line1.Point1.Type, 0
TestParameter, AutoAnalysis.Line1.Point1.XY.X, 
TestParameter, AutoAnalysis.Line1.Point1.XY.Y, 
TestParameter, AutoAnalysis.Line1.Point1.Data.Var, 
TestParameter, AutoAnalysis.Line1.Point1.Data.Condition, 
TestParameter, AutoAnalysis.Line1.Point1.Data.Start, false
TestParameter, AutoAnalysis.Line1.Point1.Data.StartVar, 
TestParameter, AutoAnalysis.Line1.Point1.Data.StartCondition, 
TestParameter, AutoAnalysis.Line1.Point2.Type, 0
TestParameter, AutoAnalysis.Line1.Point2.XY.X, 
TestParameter, AutoAnalysis.Line1.Point2.XY.Y, 
TestParameter, AutoAnalysis.Line1.Point2.Data.Var, 
TestParameter, AutoAnalysis.Line1.Point2.Data.Condition, 
TestParameter, AutoAnalysis.Line1.Point2.Data.Start, false
TestParameter, AutoAnalysis.Line1.Point2.Data.StartVar, 
TestParameter, AutoAnalysis.Line1.Point2.Data.StartCondition, 
TestParameter, AutoAnalysis.Line1.GradientExpr, 0
TestParameter, AutoAnalysis.Line2.Enabled, false
TestParameter, AutoAnalysis.Line2.Type, 1
TestParameter, AutoAnalysis.Line2.Fix, True
TestParameter, AutoAnalysis.Line2.YAxis, 0
TestParameter, AutoAnalysis.Line2.Point1.Type, 0
TestParameter, AutoAnalysis.Line2.Point1.XY.X, 
TestParameter, AutoAnalysis.Line2.Point1.XY.Y, 
TestParameter, AutoAnalysis.Line2.Point1.Data.Var, 
TestParameter, AutoAnalysis.Line2.Point1.Data.Condition, 
TestParameter, AutoAnalysis.Line2.Point1.Data.Start, false
TestParameter, AutoAnalysis.Line2.Point1.Data.StartVar, 
TestParameter, AutoAnalysis.Line2.Point1.Data.StartCondition, 
TestParameter, AutoAnalysis.Line2.Point2.Type, 0
TestParameter, AutoAnalysis.Line2.Point2.XY.X, 
TestParameter, AutoAnalysis.Line2.Point2.XY.Y, 
TestParameter, AutoAnalysis.Line2.Point2.Data.Var, 
TestParameter, AutoAnalysis.Line2.Point2.Data.Condition, 
TestParameter, AutoAnalysis.Line2.Point2.Data.Start, false
TestParameter, AutoAnalysis.Line2.Point2.Data.StartVar, 
TestParameter, AutoAnalysis.Line2.Point2.Data.StartCondition, 
TestParameter, AutoAnalysis.Line2.GradientExpr, 0
TestParameter, AutoAnalysis.Marker.Enabled, false
TestParameter, AutoAnalysis.Marker.Data.Var, 
TestParameter, AutoAnalysis.Marker.Data.Condition, 
TestParameter, AutoAnalysis.Marker.Data.Start, false
TestParameter, AutoAnalysis.Marker.Data.StartVar, 
TestParameter, AutoAnalysis.Marker.Data.StartCondition, 
MetaData, TestRecord.EntryPoint, true
MetaData, TestRecord.RecordTime, 11/13/2017 10:48:09
MetaData, TestRecord.TestTarget, 
MetaData, TestRecord.IterationIndex, 2
MetaData, TestRecord.Preservation, true
MetaData, TestRecord.Flag, 
MetaData, TestRecord.Remarks, 
MetaData, TestRecord.LinkKey, e53236f5-e4a3-4b84-bc62-bf9550429722
Dimension1, 202, 202, 202, 202
Dimension2, 1, 1, 1, 1
DataName, Vg, Vd, Id, Ig
DataValue, -10, 0.1, -4.28E-12, -7.9800000000000011E-12
DataValue, -9.8, 0.1, 1.0810000000000001E-11, 3.51E-12
DataValue, -9.6, 0.1, 5.7450000000000006E-11, 1.752E-11
DataValue, -9.4, 0.1, 4.545E-11, 4.778E-11
DataValue, -9.2000000000000011, 0.1, 2.01E-12, 4.5240000000000004E-11
DataValue, -9, 0.1, 3.1400000000000004E-12, 8.2000000000000014E-12
DataValue, -8.8, 0.1, -2.36E-12, -6.04E-12
DataValue, -8.6, 0.1, -5.084E-11, -1.755E-11
DataValue, -8.4, 0.1, -5.2780000000000004E-11, -4.7150000000000006E-11
DataValue, -8.2, 0.1, -3.0000000000000003E-13, -5.1650000000000004E-11
DataValue, -8, 0.1, -3.5E-13, -1.679E-11
DataValue, -7.8, 0.1, -3.5E-13, 2.82E-12
DataValue, -7.6000000000000005, 0.1, 4.3710000000000003E-11, 1.16E-11
DataValue, -7.4, 0.1, 6.2080000000000007E-11, 3.6100000000000003E-11
DataValue, -7.2, 0.1, 1.1620000000000001E-11, 5.4350000000000005E-11
DataValue, -7, 0.1, 1.96E-12, 2.6360000000000003E-11
DataValue, -6.8, 0.1, 1.0600000000000001E-12, -3.18E-12
DataValue, -6.6000000000000005, 0.1, -3.029E-11, -1.029E-11
DataValue, -6.4, 0.1, -6.156E-11, -3.085E-11
DataValue, -6.2, 0.1, -2.1480000000000003E-11, -5.5450000000000006E-11
DataValue, -6, 0.1, -1.8100000000000002E-12, -3.448E-11
DataValue, -5.8, 0.1, -2.2000000000000003E-12, 1.1600000000000001E-12
DataValue, -5.6000000000000005, 0.1, 2.389E-11, 7.83E-12
DataValue, -5.4, 0.1, 6.087E-11, 2.624E-11
DataValue, -5.2, 0.1, 2.9840000000000004E-11, 5.386E-11
DataValue, -5, 0.1, 2.59E-12, 3.823E-11
DataValue, -4.8, 0.1, 2.9800000000000002E-12, 1.6000000000000003E-13
DataValue, -4.6000000000000005, 0.1, -1.454E-11, -6.3200000000000005E-12
DataValue, -4.4, 0.1, -5.7190000000000005E-11, -2.2210000000000003E-11
DataValue, -4.2, 0.1, -3.9170000000000005E-11, -5.0500000000000007E-11
DataValue, -4, 0.1, 9.000000000000001E-13, -4.042E-11
DataValue, -3.8000000000000003, 0.1, 3.0000000000000003E-13, -4.38E-12
DataValue, -3.6, 0.1, 1.269E-11, 5.5700000000000007E-12
DataValue, -3.4, 0.1, 8.1290000000000011E-11, 1.754E-11
DataValue, -3.2, 0.1, 1.5711000000000001E-10, 4.654E-11
DataValue, -3, 0.1, 3.4727000000000003E-10, 5.1150000000000006E-11
DataValue, -2.8000000000000003, 0.1, 1.0888E-09, -5.1330000000000005E-11
DataValue, -2.6, 0.1, 3.7469E-09, -2.245E-11
DataValue, -2.4, 0.1, 1.0867599999999998E-08, 1.59E-12
DataValue, -2.2, 0.1, 2.7479599999999997E-08, 2.4950000000000002E-11
DataValue, -2, 0.1, 5.7347999999999992E-08, 4.861E-11
DataValue, -1.8, 0.1, 1.0351279999999998E-07, 5.4870000000000007E-11
DataValue, -1.6, 0.1, 1.7208E-07, 1.499E-11
DataValue, -1.4000000000000001, 0.1, 2.6718E-07, -7.29E-12
DataValue, -1.2, 0.1, 3.8372E-07, -4.2000000000000004E-11
DataValue, -1, 0.1, 5.1592E-07, -3.729E-11
DataValue, -0.8, 0.1, 6.5428E-07, 4.77E-12
DataValue, -0.6, 0.1, 7.9426E-07, 2.553E-11
DataValue, -0.4, 0.1, 9.3555999999999994E-07, 5.2170000000000006E-11
DataValue, -0.2, 0.1, 1.07544E-06, -7.3E-13
DataValue, 0, 0.1, 1.2146000000000002E-06, -2.979E-11
DataValue, 0.2, 0.1, 1.3534E-06, 4.63E-12
DataValue, 0.4, 0.1, 1.4925000000000001E-06, 2.052E-11
DataValue, 0.6, 0.1, 1.6329E-06, 5.568E-11
DataValue, 0.8, 0.1, 1.7733000000000002E-06, 2.014E-11
DataValue, 1, 0.1, 1.9155E-06, -4.5500000000000006E-12
DataValue, 1.2, 0.1, 2.0597000000000004E-06, -2.4860000000000002E-11
DataValue, 1.4000000000000001, 0.1, 2.2054E-06, -5.4000000000000007E-11
DataValue, 1.6, 0.1, 2.3529000000000004E-06, -1.099E-11
DataValue, 1.8, 0.1, 2.5030000000000004E-06, 7.2500000000000008E-12
DataValue, 2, 0.1, 2.6550000000000004E-06, 3.081E-11
DataValue, 2.2, 0.1, 2.8087000000000003E-06, 5.3760000000000004E-11
DataValue, 2.4, 0.1, 2.9655000000000002E-06, 5.7700000000000007E-12
DataValue, 2.6, 0.1, 3.1238000000000005E-06, -7.39E-12
DataValue, 2.8000000000000003, 0.1, 3.2841000000000005E-06, -3.599E-11
DataValue, 3, 0.1, 3.4475000000000005E-06, -4.821E-11
DataValue, 3.2, 0.1, 3.6118000000000003E-06, 8.9E-13
DataValue, 3.4, 0.1, 3.7790000000000006E-06, 1.1420000000000001E-11
DataValue, 3.6, 0.1, 3.948E-06, 4.457E-11
DataValue, 3.8000000000000003, 0.1, 4.1192E-06, 4.61E-11
DataValue, 4, 0.1, 4.2917000000000008E-06, -9.000000000000001E-13
DataValue, 4.2, 0.1, 4.4664E-06, -1.0510000000000001E-11
DataValue, 4.4, 0.1, 4.6434E-06, -4.599E-11
DataValue, 4.6000000000000005, 0.1, 4.8225000000000008E-06, -3.838E-11
DataValue, 4.8, 0.1, 5.0019E-06, 3.58E-12
DataValue, 5, 0.1, 5.1845000000000009E-06, 1.046E-11
DataValue, 5.2, 0.1, 5.3689E-06, 3.9750000000000005E-11
DataValue, 5.4, 0.1, 5.5544000000000006E-06, 5.066E-11
DataValue, 5.6000000000000005, 0.1, 5.7419000000000009E-06, 2.1500000000000003E-12
DataValue, 5.8, 0.1, 5.9299000000000006E-06, -8.77E-12
DataValue, 6, 0.1, 6.1204000000000007E-06, -4.05E-11
DataValue, 6.2, 0.1, 6.3126E-06, -4.5440000000000007E-11
DataValue, 6.4, 0.1, 6.5056000000000009E-06, 2.31E-12
DataValue, 6.6000000000000005, 0.1, 6.7010000000000007E-06, 1.199E-11
DataValue, 6.8, 0.1, 6.8976000000000007E-06, 4.5970000000000004E-11
DataValue, 7, 0.1, 7.0952000000000011E-06, 4.367E-11
DataValue, 7.2, 0.1, 7.294100000000001E-06, -9.4E-13
DataValue, 7.4, 0.1, 7.4937000000000008E-06, -1.2220000000000001E-11
DataValue, 7.6000000000000005, 0.1, 7.6956000000000013E-06, -4.9810000000000007E-11
DataValue, 7.8, 0.1, 7.8988000000000014E-06, -3.2430000000000005E-11
DataValue, 8, 0.1, 8.1025E-06, 2.9600000000000003E-12
DataValue, 8.2, 0.1, 8.3071E-06, 1.4470000000000001E-11
DataValue, 8.4, 0.1, 8.5137000000000012E-06, 4.9390000000000003E-11
DataValue, 8.6, 0.1, 8.7214000000000009E-06, 3.875E-11
DataValue, 8.8, 0.1, 8.9298E-06, -1.51E-12
DataValue, 9, 0.1, 9.1382000000000017E-06, -1.4760000000000003E-11
DataValue, 9.2000000000000011, 0.1, 9.3491000000000017E-06, -5.2280000000000006E-11
DataValue, 9.4, 0.1, 9.5611E-06, -2.504E-11
DataValue, 9.6, 0.1, 9.7730000000000011E-06, 5.74E-12
DataValue, 9.8, 0.1, 9.9865000000000017E-06, 2.2330000000000002E-11
DataValue, 10, 0.1, 1.0199800000000002E-05, 5.6640000000000004E-11
DataValue, 10, 0.1, 1.02038E-05, -1.0540000000000002E-11
DataValue, 9.8, 0.1, 1.00183E-05, 7.42E-12
DataValue, 9.6, 0.1, 9.830900000000001E-06, 3.0860000000000004E-11
DataValue, 9.4, 0.1, 9.6421E-06, 5.422E-11
DataValue, 9.2000000000000011, 0.1, 9.453E-06, 7.41E-12
DataValue, 9, 0.1, 9.2625000000000015E-06, -6.9500000000000009E-12
DataValue, 8.8, 0.1, 9.0727E-06, -3.558E-11
DataValue, 8.6, 0.1, 8.8833E-06, -4.9650000000000004E-11
DataValue, 8.4, 0.1, 8.6929000000000011E-06, -2.16E-12
DataValue, 8.2, 0.1, 8.5030000000000014E-06, 9.03E-12
DataValue, 8, 0.1, 8.3126E-06, 3.8040000000000005E-11
DataValue, 7.8, 0.1, 8.1239E-06, 4.906E-11
DataValue, 7.6000000000000005, 0.1, 7.9345E-06, 2.2000000000000002E-13
DataValue, 7.4, 0.1, 7.7454E-06, -1.065E-11
DataValue, 7.2, 0.1, 7.5563000000000008E-06, -4.6770000000000004E-11
DataValue, 7, 0.1, 7.369400000000001E-06, -4.141E-11
DataValue, 6.8, 0.1, 7.1814E-06, 2.19E-12
DataValue, 6.6000000000000005, 0.1, 6.9948E-06, 1.3560000000000001E-11
DataValue, 6.4, 0.1, 6.8082E-06, 5.051E-11
DataValue, 6.2, 0.1, 6.623500000000001E-06, 3.4830000000000004E-11
DataValue, 6, 0.1, 6.4389E-06, -3.3100000000000002E-12
DataValue, 5.8, 0.1, 6.2549000000000009E-06, -1.6470000000000002E-11
DataValue, 5.6000000000000005, 0.1, 6.0723E-06, -5.401E-11
DataValue, 5.4, 0.1, 5.8909000000000006E-06, -2.6360000000000003E-11
DataValue, 5.2, 0.1, 5.7096E-06, 4E-12
DataValue, 5, 0.1, 5.5296E-06, 2.1110000000000002E-11
DataValue, 4.8, 0.1, 5.3508000000000005E-06, 5.484E-11
DataValue, 4.6000000000000005, 0.1, 5.1739000000000006E-06, 1.573E-11
DataValue, 4.4, 0.1, 4.9971000000000008E-06, -6.1E-12
DataValue, 4.2, 0.1, 4.8221000000000008E-06, -2.8090000000000003E-11
DataValue, 4, 0.1, 4.6478000000000006E-06, -5.393E-11
DataValue, 3.8000000000000003, 0.1, 4.4765E-06, -9.1000000000000012E-12
DataValue, 3.6, 0.1, 4.3052000000000007E-06, 6.1100000000000004E-12
DataValue, 3.4, 0.1, 4.1354E-06, 3.106E-11
DataValue, 3.2, 0.1, 3.967E-06, 5.1210000000000003E-11
DataValue, 3, 0.1, 3.8010000000000005E-06, 3.82E-12
DataValue, 2.8000000000000003, 0.1, 3.6355E-06, -8.61E-12
DataValue, 2.6, 0.1, 3.4722000000000004E-06, -3.6770000000000006E-11
DataValue, 2.4, 0.1, 3.311E-06, -5.0820000000000005E-11
DataValue, 2.2, 0.1, 3.1503E-06, -2.69E-12
DataValue, 2, 0.1, 2.9921E-06, 8.1800000000000011E-12
DataValue, 1.8, 0.1, 2.8355E-06, 3.8730000000000005E-11
DataValue, 1.6, 0.1, 2.6799000000000004E-06, 4.665E-11
DataValue, 1.4000000000000001, 0.1, 2.5266E-06, -1.32E-12
DataValue, 1.2, 0.1, 2.3743000000000003E-06, -1.1230000000000001E-11
DataValue, 1, 0.1, 2.2228E-06, -4.5730000000000006E-11
DataValue, 0.8, 0.1, 2.0732000000000003E-06, -4.286E-11
DataValue, 0.6, 0.1, 1.924E-06, 1.2900000000000002E-12
DataValue, 0.4, 0.1, 1.7747000000000001E-06, 1.2230000000000001E-11
DataValue, 0.2, 0.1, 1.6253000000000001E-06, 4.9030000000000004E-11
DataValue, 0, 0.1, 1.4739000000000002E-06, 3.419E-11
DataValue, -0.2, 0.1, 1.3188000000000002E-06, -3.4900000000000003E-12
DataValue, -0.4, 0.1, 1.1577000000000002E-06, -1.5430000000000002E-11
DataValue, -0.6, 0.1, 9.8713999999999988E-07, 4.6860000000000007E-11
DataValue, -0.8, 0.1, 8.0753999999999994E-07, -3.5700000000000003E-12
DataValue, -1, 0.1, 6.2232E-07, -2.063E-11
DataValue, -1.2, 0.1, 4.4405999999999997E-07, -5.455E-11
DataValue, -1.4000000000000001, 0.1, 2.9342E-07, -2.37E-12
DataValue, -1.6, 0.1, 1.814E-07, 1.179E-11
DataValue, -1.8, 0.1, 1.0496E-07, 5.292E-11
DataValue, -2, 0.1, 5.9916999999999993E-08, -5.1830000000000004E-11
DataValue, -2.2, 0.1, 3.2084199999999996E-08, -5.3120000000000006E-11
DataValue, -2.4, 0.1, 1.68136E-08, -3.386E-11
DataValue, -2.6, 0.1, 8.3814E-09, -1.3360000000000001E-11
DataValue, -2.8000000000000003, 0.1, 3.1772E-09, -3.3710000000000006E-11
DataValue, -3, 0.1, 1.008E-09, 9.2200000000000015E-12
DataValue, -3.2, 0.1, 2.4435000000000004E-10, -4.01E-12
DataValue, -3.4, 0.1, 1.8290000000000002E-11, -1.209E-11
DataValue, -3.6, 0.1, -5.037E-11, -3.415E-11
DataValue, -3.8000000000000003, 0.1, -1.362E-11, -5.703E-11
DataValue, -4, 0.1, -8.2E-13, -3.455E-11
DataValue, -4.2, 0.1, -8.0000000000000013E-14, -1.6600000000000002E-12
DataValue, -4.4, 0.1, 2.127E-11, 4.72E-12
DataValue, -4.6000000000000005, 0.1, 6.0310000000000009E-11, 2.0130000000000002E-11
DataValue, -4.8, 0.1, 3.883E-11, 5.0520000000000004E-11
DataValue, -5, 0.1, 2.7000000000000002E-12, 4.1680000000000005E-11
DataValue, -5.2, 0.1, 4.18E-12, 2E-12
DataValue, -5.4, 0.1, -6.9800000000000006E-12, -7.1000000000000008E-12
DataValue, -5.6000000000000005, 0.1, -5.455E-11, -1.9800000000000002E-11
DataValue, -5.8, 0.1, -4.668E-11, -4.9470000000000005E-11
DataValue, -6, 0.1, -1.4300000000000002E-12, -4.9220000000000006E-11
DataValue, -6.2, 0.1, -1.3300000000000002E-12, -1.008E-11
DataValue, -6.4, 0.1, 4.4400000000000005E-12, 3.1900000000000003E-12
DataValue, -6.6000000000000005, 0.1, 5.1540000000000004E-11, 1.513E-11
DataValue, -6.8, 0.1, 5.2020000000000005E-11, 4.5170000000000004E-11
DataValue, -7, 0.1, 1.02E-12, 4.811E-11
DataValue, -7.2, 0.1, 7.6000000000000009E-13, 1.1760000000000002E-11
DataValue, -7.4, 0.1, -1.93E-12, -5.13E-12
DataValue, -7.6000000000000005, 0.1, -4.5800000000000006E-11, -1.4410000000000002E-11
DataValue, -7.8, 0.1, -6.082E-11, -4.0260000000000005E-11
DataValue, -8, 0.1, -7.26E-12, -5.463E-11
DataValue, -8.2, 0.1, -9.9E-13, -2.314E-11
DataValue, -8.4, 0.1, -9.3E-13, 2.11E-12
DataValue, -8.6, 0.1, 3.893E-11, 1.0210000000000001E-11
DataValue, -8.8, 0.1, 6.2410000000000007E-11, 3.353E-11
DataValue, -9, 0.1, 1.414E-11, 5.379E-11
DataValue, -9.2000000000000011, 0.1, 2.85E-12, 2.6170000000000002E-11
DataValue, -9.4, 0.1, 3.82E-12, -3.61E-12
DataValue, -9.6, 0.1, -2.9440000000000004E-11, -1.0620000000000001E-11
DataValue, -9.8, 0.1, -5.824000000000001E-11, -2.9260000000000004E-11
DataValue, -10, 0.1, -2.6430000000000003E-11, -5.5530000000000008E-11
SetupTitle, Trf-initial
PrimitiveTest, I/V Sweep
TestParameter, Context.MainFrame, B1500A
TestParameter, Channel.UnitType, SMU, SMU, SMU
TestParameter, Channel.Unit, SMU4:MP, SMU1:HR, SMU2:HR
TestParameter, Channel.IName, Id, Ig, Is
TestParameter, Channel.VName, Vd, Vg, Vs
TestParameter, Channel.Mode, V, V, COMMON
TestParameter, Channel.Func, CONST, VAR1, CONST
TestParameter, Channel.Index, 
TestParameter, Channel.Time, 
TestParameter, Measurement.Port.Unit, SMU4:MP, SMU1:HR, SMU2:HR
TestParameter, Measurement.Port.SeriesResistor, NONE, NONE, NONE
TestParameter, Measurement.Port.Filter, ON, ON, ON
TestParameter, Measurement.Port.OutputVoltageComparison, 0, 0, 0
TestParameter, Measurement.Primary.Locus, Single
TestParameter, Measurement.Primary.Scale, LINEAR
TestParameter, Measurement.Primary.Start, -10
TestParameter, Measurement.Primary.Stop, 10
TestParameter, Measurement.Primary.Step, 1
TestParameter, Measurement.Primary.Compliance, 0.1
TestParameter, Measurement.Primary.PowerCompliance, 0
TestParameter, Measurement.Aborting.Condition, CONTINUE AT ANY
TestParameter, Measurement.PostOutput.Value, START
TestParameter, Measurement.PostOutput.Retention, OFF
TestParameter, Measurement.Bias.Source, 0.1, -10, 0
TestParameter, Measurement.Bias.Compliance, 0.1, 0.1, 0.1
TestParameter, Measurement.Monitor.Unit, SMU4:MP, SMU1:HR, SMU2:HR
TestParameter, Measurement.Monitor.Adc, HR ADC, HR ADC, HR ADC
TestParameter, Measurement.Monitor.Measurement, Compliance Side, Compliance Side, Compliance Side
TestParameter, Measurement.Monitor.RangingMode, LIMITED, LIMITED, LIMITED
TestParameter, Measurement.Monitor.RangeBoundary, 1nA, 1nA, 1nA
TestParameter, Measurement.Monitor.RangeRating, BY FULL RANGE, BY FULL RANGE, BY FULL RANGE
TestParameter, Measurement.Monitor.RangeRatingCoeff, 50, 50, 50
TestParameter, Measurement.Timing.Hold, 0
