
SetupTitle, I/V-t Sampling
PrimitiveTest, I/V-t Sampling
TestParameter, Context.MainFrame, 4155C
TestParameter, Channel.UnitType, SMU, SMU
TestParameter, Channel.Unit, SMU1:MP, SMU3:MP
TestParameter, Channel.IName, I1, I2
TestParameter, Channel.VName, V1, V2
TestParameter, Channel.Mode, V, COMMON
TestParameter, Channel.Index, 
TestParameter, Channel.Time, Time
TestParameter, Measurement.Port.Unit, SMU1:MP, SMU3:MP
TestParameter, Measurement.Port.SeriesResistor, NONE, NONE
TestParameter, Measurement.Port.Filter, ON, ON
TestParameter, Measurement.Sampling.Scale, LINEAR
TestParameter, Measurement.Sampling.Interval, 0.005
TestParameter, Measurement.Sampling.Count, 3000
TestParameter, Measurement.Sampling.HoldTime, 0
TestParameter, Measurement.Sampling.BaseHoldTime, 0
TestParameter, Measurement.Sampling.OutputSequence, SEQUENTIAL
TestParameter, Measurement.PostOutput.Value, SOURCE
TestParameter, Measurement.PostOutput.Retention, OFF
TestParameter, Measurement.Bias.Source, 2, 0
TestParameter, Measurement.Bias.Compliance, 0.1, 0.1
TestParameter, Measurement.Monitor.Unit, SMU1:MP, SMU3:MP
TestParameter, Measurement.Monitor.Adc, HR ADC, HR ADC
TestParameter, Measurement.Monitor.RangingMode, LIMITED, LIMITED
TestParameter, Measurement.Monitor.RangeBoundary, 1nA, 1nA
TestParameter, Measurement.Monitor.RangeRating, BY FULL RANGE, BY FULL RANGE
TestParameter, Measurement.Monitor.RangeRatingCoeff, 50, 50
TestParameter, Measurement.Adc.HighResolution.AutoZero, OFF
TestParameter, Measurement.Adc.HighResolution.Mode, AUTO
TestParameter, Measurement.Adc.HighResolution.Coeff, 1
TestParameter, Measurement.Ag16440ASelector.SemiconductorRelay.Channel1, DEFAULT
TestParameter, Measurement.Ag16440ASelector.SemiconductorRelay.Channel3, DEFAULT
TestParameter, Output.Graph.Enabled, true
TestParameter, Output.Graph.AutoScaling, false
TestParameter, Output.Graph.XAxis.Data, Time
TestParameter, Output.Graph.XAxis.Scale, Linear
TestParameter, Output.Graph.XAxis.Left, 0
TestParameter, Output.Graph.XAxis.Right, 2099
TestParameter, Output.Graph.XAxis.RunTimeAutoScale, true
TestParameter, Output.Graph.YAxis.Data, I1
TestParameter, Output.Graph.YAxis.Scale, Linear
TestParameter, Output.Graph.YAxis.Bottom, -0.1
TestParameter, Output.Graph.YAxis.Top, 0.1
TestParameter, Output.Graph.YAxis.Group, 
TestParameter, Output.Graph.YAxis.RunTimeAutoScale, true
TestParameter, Output.List.Data, Time, I1, V1, I2, V2
TestParameter, AutoAnalysis.Interpolation, false
TestParameter, AutoAnalysis.Var2StepCount, 1
TestParameter, AutoAnalysis.Var2StepScript, 
TestParameter, AutoAnalysis.Line1.Enabled, false
TestParameter, AutoAnalysis.Line1.Type, 1
TestParameter, AutoAnalysis.Line1.Fix, True
TestParameter, AutoAnalysis.Line1.YAxis, 0
TestParameter, AutoAnalysis.Line1.Point1.Type, 0
TestParameter, AutoAnalysis.Line1.Point1.XY.X, 
TestParameter, AutoAnalysis.Line1.Point1.XY.Y, 
TestParameter, AutoAnalysis.Line1.Point1.Data.Var, 
TestParameter, AutoAnalysis.Line1.Point1.Data.Condition, 
TestParameter, AutoAnalysis.Line1.Point1.Data.Start, false
TestParameter, AutoAnalysis.Line1.Point1.Data.StartVar, 
TestParameter, AutoAnalysis.Line1.Point1.Data.StartCondition, 
TestParameter, AutoAnalysis.Line1.Point2.Type, 0
TestParameter, AutoAnalysis.Line1.Point2.XY.X, 
TestParameter, AutoAnalysis.Line1.Point2.XY.Y, 
TestParameter, AutoAnalysis.Line1.Point2.Data.Var, 
TestParameter, AutoAnalysis.Line1.Point2.Data.Condition, 
TestParameter, AutoAnalysis.Line1.Point2.Data.Start, false
TestParameter, AutoAnalysis.Line1.Point2.Data.StartVar, 
TestParameter, AutoAnalysis.Line1.Point2.Data.StartCondition, 
TestParameter, AutoAnalysis.Line1.GradientExpr, 0
TestParameter, AutoAnalysis.Line2.Enabled, false
TestParameter, AutoAnalysis.Line2.Type, 1
TestParameter, AutoAnalysis.Line2.Fix, True
TestParameter, AutoAnalysis.Line2.YAxis, 0
TestParameter, AutoAnalysis.Line2.Point1.Type, 0
TestParameter, AutoAnalysis.Line2.Point1.XY.X, 
TestParameter, AutoAnalysis.Line2.Point1.XY.Y, 
TestParameter, AutoAnalysis.Line2.Point1.Data.Var, 
TestParameter, AutoAnalysis.Line2.Point1.Data.Condition, 
TestParameter, AutoAnalysis.Line2.Point1.Data.Start, false
TestParameter, AutoAnalysis.Line2.Point1.Data.StartVar, 
TestParameter, AutoAnalysis.Line2.Point1.Data.StartCondition, 
TestParameter, AutoAnalysis.Line2.Point2.Type, 0
TestParameter, AutoAnalysis.Line2.Point2.XY.X, 
TestParameter, AutoAnalysis.Line2.Point2.XY.Y, 
TestParameter, AutoAnalysis.Line2.Point2.Data.Var, 
TestParameter, AutoAnalysis.Line2.Point2.Data.Condition, 
TestParameter, AutoAnalysis.Line2.Point2.Data.Start, false
TestParameter, AutoAnalysis.Line2.Point2.Data.StartVar, 
TestParameter, AutoAnalysis.Line2.Point2.Data.StartCondition, 
TestParameter, AutoAnalysis.Line2.GradientExpr, 0
TestParameter, AutoAnalysis.Marker.Enabled, false
TestParameter, AutoAnalysis.Marker.Data.Var, 
TestParameter, AutoAnalysis.Marker.Data.Condition, 
TestParameter, AutoAnalysis.Marker.Data.Start, false
TestParameter, AutoAnalysis.Marker.Data.StartVar, 
TestParameter, AutoAnalysis.Marker.Data.StartCondition, 
TestParameter, Measurement.Sampling.StopCondition.Enabled, false
TestParameter, Measurement.Sampling.StopCondition.EnableDelay, 0
TestParameter, Measurement.Sampling.StopCondition.Name, 
TestParameter, Measurement.Sampling.StopCondition.Threshold, 0
TestParameter, Measurement.Sampling.StopCondition.Event, Val > Th
TestParameter, Measurement.Sampling.StopCondition.EventCount, 1
MetaData, TestRecord.EntryPoint, true
MetaData, TestRecord.RecordTime, 02/14/2023 13:26:50
MetaData, TestRecord.TestTarget, 
MetaData, TestRecord.IterationIndex, 1
MetaData, TestRecord.Preservation, true
MetaData, TestRecord.Flag, !
MetaData, TestRecord.Remarks, 
MetaData, TestRecord.LinkKey, dbd6d6be-4ca8-4476-b6ff-55ba9ccd34ba
MetaData, TestRecord.Parameters, 
Dimension1, 3000, 3000, 3000, 3000, 3000
Dimension2, 1, 1, 1, 1, 1
DataName, V1, V2, Time, I1, I2
DataValue, 2, 0, 0, 4.2952999999999994E-09, -4.2362E-09
DataValue, 2, 0, 0.14500000000000002, 4.2082999999999992E-09, -4.1999999999999996E-09
DataValue, 2, 0, 0.2, 4.1811E-09, -4.1617E-09
DataValue, 2, 0, 0.25, 4.1518E-09, -4.1444E-09
DataValue, 2, 0, 0.30000000000000004, 4.1306E-09, -4.1138E-09
DataValue, 2, 0, 0.35000000000000003, 4.1042E-09, -4.1019E-09
DataValue, 2, 0, 0.4, 4.0857E-09, -4.0742999999999995E-09
DataValue, 2, 0, 0.45, 4.0641999999999993E-09, -4.0639999999999992E-09
DataValue, 2, 0, 0.505, 4.0451E-09, -4.0457999999999994E-09
DataValue, 2, 0, 0.56500000000000006, 4.0245999999999995E-09, -4.0269999999999994E-09
DataValue, 2, 0, 0.625, 4.0068999999999995E-09, -4.0092E-09
DataValue, 2, 0, 0.685, 3.9906999999999995E-09, -3.9925E-09
DataValue, 2, 0, 0.74500000000000011, 3.9748999999999996E-09, -3.9774E-09
DataValue, 2, 0, 0.805, 3.9664E-09, -3.955E-09
DataValue, 2, 0, 0.85500000000000009, 3.9504E-09, -3.9524999999999993E-09
DataValue, 2, 0, 0.905, 3.9414E-09, -3.9312E-09
DataValue, 2, 0, 0.95500000000000007, 3.9282999999999993E-09, -3.9299999999999995E-09
DataValue, 2, 0, 1.0050000000000001, 3.9185999999999993E-09, -3.9083E-09
DataValue, 2, 0, 1.0550000000000002, 3.9079E-09, -3.9083E-09
DataValue, 2, 0, 1.11, 3.8945999999999994E-09, -3.8995999999999992E-09
DataValue, 2, 0, 1.1700000000000002, 3.8848E-09, -3.888E-09
DataValue, 2, 0, 1.2300000000000002, 3.8729999999999993E-09, -3.8766999999999992E-09
DataValue, 2, 0, 1.29, 3.8619999999999993E-09, -3.8649999999999994E-09
DataValue, 2, 0, 1.35, 3.8511999999999993E-09, -3.8565E-09
DataValue, 2, 0, 1.4100000000000001, 3.8469E-09, -3.8379E-09
DataValue, 2, 0, 1.4600000000000002, 3.8362999999999993E-09, -3.8385E-09
DataValue, 2, 0, 1.5100000000000002, 3.8303E-09, -3.8225E-09
DataValue, 2, 0, 1.56, 3.8215E-09, -3.9100999999999996E-09
DataValue, 2, 0, 1.6150000000000002, 7.0648999999999995E-09, -7.3735999999999994E-09
DataValue, 2, 0, 1.675, 7.3516999999999989E-09, -7.3509999999999991E-09
DataValue, 2, 0, 1.735, 7.3362999999999992E-09, -7.3335999999999996E-09
DataValue, 2, 0, 1.7950000000000002, 7.3214999999999996E-09, -7.3227999999999996E-09
DataValue, 2, 0, 1.8550000000000002, 7.3159999999999991E-09, -7.3062999999999991E-09
DataValue, 2, 0, 1.9000000000000001, 7.304799999999999E-09, -7.3071999999999989E-09
DataValue, 2, 0, 1.955, 7.299399999999999E-09, -7.2871999999999994E-09
DataValue, 2, 0, 2.0050000000000003, 7.288599999999999E-09, -7.2897999999999994E-09
DataValue, 2, 0, 2.055, 7.2794999999999991E-09, -7.2733999999999993E-09
DataValue, 2, 0, 2.105, 7.2714999999999991E-09, -7.2741999999999996E-09
DataValue, 2, 0, 2.1550000000000002, 7.2626999999999989E-09, -7.2545999999999993E-09
DataValue, 2, 0, 2.205, 7.253399999999999E-09, -7.256199999999999E-09
DataValue, 2, 0, 2.2600000000000002, 7.245399999999999E-09, -7.246699999999999E-09
DataValue, 2, 0, 2.3200000000000003, 7.2337999999999996E-09, -7.2351999999999992E-09
DataValue, 2, 0, 2.3800000000000003, 7.2240999999999995E-09, -7.2275999999999993E-09
DataValue, 2, 0, 2.4400000000000004, 7.214299999999999E-09, -7.2167999999999993E-09
DataValue, 2, 0, 2.5, 7.2089999999999994E-09, -7.1944999999999995E-09
DataValue, 2, 0, 2.5500000000000003, 7.1979E-09, -7.2000999999999996E-09
DataValue, 2, 0, 2.6, 7.1911999999999989E-09, -7.1797999999999995E-09
DataValue, 2, 0, 2.6500000000000004, 7.18E-09, -7.1838999999999996E-09
DataValue, 2, 0, 2.7, 7.1735E-09, -7.1628999999999989E-09
DataValue, 2, 0, 2.7500000000000004, 7.165899999999999E-09, -7.1647999999999991E-09
DataValue, 2, 0, 2.805, 7.153599999999999E-09, -7.1564999999999994E-09
DataValue, 2, 0, 2.865, 7.1437E-09, -7.1465999999999993E-09
DataValue, 2, 0, 2.9250000000000003, 7.1359E-09, -7.136299999999999E-09
DataValue, 2, 0, 2.9850000000000003, 7.124199999999999E-09, -7.128099999999999E-09
DataValue, 2, 0, 3.0450000000000004, 7.1191999999999992E-09, -7.1109999999999991E-09
DataValue, 2, 0, 3.0900000000000003, 7.1081999999999991E-09, -7.112099999999999E-09
DataValue, 2, 0, 3.1450000000000005, 7.1033999999999993E-09, -7.0919999999999991E-09
DataValue, 2, 0, 3.1950000000000003, 7.093099999999999E-09, -7.0968E-09
DataValue, 2, 0, 3.245, 7.0873E-09, -7.0791E-09
DataValue, 2, 0, 3.2950000000000004, 7.0776999999999992E-09, -7.0840999999999996E-09
DataValue, 2, 0, 3.345, 7.0689999999999995E-09, -7.0609999999999995E-09
DataValue, 2, 0, 3.3950000000000005, 7.0611999999999996E-09, -7.067399999999999E-09
DataValue, 2, 0, 3.4450000000000003, 7.0519E-09, -7.0452E-09
DataValue, 2, 0, 3.495, 7.0461999999999991E-09, -7.0495E-09
DataValue, 2, 0, 3.5500000000000003, 7.0378999999999994E-09, -7.041899999999999E-09
DataValue, 2, 0, 3.6100000000000003, 7.0275999999999992E-09, -7.033899999999999E-09
DataValue, 2, 0, 3.6700000000000004, 7.0233999999999995E-09, -7.0078E-09
DataValue, 2, 0, 3.72, 7.012299999999999E-09, -7.017499999999999E-09
DataValue, 2, 0, 3.7700000000000005, 7.006899999999999E-09, -6.9938999999999992E-09
DataValue, 2, 0, 3.8200000000000003, 6.9964999999999992E-09, -7.0003999999999991E-09
DataValue, 2, 0, 3.87, 6.9899999999999992E-09, -6.9836999999999994E-09
DataValue, 2, 0, 3.9200000000000004, 6.9827999999999995E-09, -6.986599999999999E-09
DataValue, 2, 0, 3.9750000000000005, 6.9718999999999991E-09, -6.9780999999999993E-09
DataValue, 2, 0, 4.035, 6.9631999999999993E-09, -6.9708999999999996E-09
DataValue, 2, 0, 4.0950000000000006, 6.8747999999999995E-09, -4.945E-09
DataValue, 2, 0, 4.155, 3.5187E-09, -3.5294E-09
DataValue, 2, 0, 4.2150000000000007, 3.5157999999999998E-09, -3.5221999999999997E-09
DataValue, 2, 0, 4.275, 3.5081999999999995E-09, -3.5143999999999998E-09
DataValue, 2, 0, 4.335, 3.501E-09, -3.5073999999999997E-09
DataValue, 2, 0, 4.3950000000000005, 3.4988999999999996E-09, -3.4869999999999996E-09
DataValue, 2, 0, 4.445, 3.4903E-09, -3.4948999999999996E-09
DataValue, 2, 0, 4.5, 3.4854999999999996E-09, -3.4912999999999997E-09
DataValue, 2, 0, 4.5600000000000005, 3.4815999999999996E-09, -3.4860999999999998E-09
DataValue, 2, 0, 4.62, 3.4733999999999996E-09, -3.4797999999999995E-09
DataValue, 2, 0, 4.6800000000000006, 3.4678999999999996E-09, -3.4749999999999997E-09
DataValue, 2, 0, 4.74, 3.4629999999999997E-09, -3.4695999999999997E-09
DataValue, 2, 0, 4.8000000000000007, 3.4587999999999997E-09, -3.4648999999999995E-09
DataValue, 2, 0, 4.86, 3.4553E-09, -3.4588999999999997E-09
DataValue, 2, 0, 4.9200000000000008, 3.4484E-09, -3.4565E-09
DataValue, 2, 0, 4.98, 3.4452999999999997E-09, -3.4404E-09
DataValue, 2, 0, 5.03, 3.4394999999999995E-09, -3.4485E-09
DataValue, 2, 0, 5.0850000000000009, 3.4364E-09, -3.4410999999999996E-09
DataValue, 2, 0, 5.1450000000000005, 3.4333999999999997E-09, -3.4395999999999996E-09
DataValue, 2, 0, 5.205, 3.4271999999999995E-09, -3.4363E-09
DataValue, 2, 0, 5.2650000000000006, 3.4243E-09, -3.4297E-09
DataValue, 2, 0, 5.325, 3.4208999999999996E-09, -3.4257999999999995E-09
DataValue, 2, 0, 5.3850000000000007, 3.4176E-09, -3.4230999999999995E-09
DataValue, 2, 0, 5.445, 3.4136E-09, -3.4197999999999997E-09
DataValue, 2, 0, 5.5050000000000008, 3.4100999999999996E-09, -3.4150999999999995E-09
DataValue, 2, 0, 5.565, 3.4095999999999995E-09, -3.3994999999999997E-09
DataValue, 2, 0, 5.615, 3.404E-09, -3.4083999999999995E-09
DataValue, 2, 0, 5.665, 3.4018999999999996E-09, -3.3948999999999995E-09
DataValue, 2, 0, 5.7150000000000007, 3.4E-09, -3.4029999999999995E-09
DataValue, 2, 0, 5.7650000000000006, 3.3964999999999996E-09, -3.3876999999999998E-09
DataValue, 2, 0, 5.815, 3.3937999999999996E-09, -3.3970999999999998E-09
DataValue, 2, 0, 5.87, 3.3897999999999996E-09, -3.396E-09
DataValue, 2, 0, 5.9300000000000006, 3.3868999999999995E-09, -3.3942999999999997E-09
DataValue, 2, 0, 5.99, 3.3834999999999997E-09, -3.3894999999999995E-09
DataValue, 2, 0, 6.0500000000000007, 3.3830999999999996E-09, -3.3859999999999997E-09
DataValue, 2, 0, 6.11, 3.3772E-09, -3.3840999999999995E-09
DataValue, 2, 0, 6.1700000000000008, 3.377E-09, -3.3695999999999996E-09
DataValue, 2, 0, 6.2200000000000006, 3.3729E-09, -3.3792999999999997E-09
DataValue, 2, 0, 6.275, 3.3710999999999997E-09, -3.377E-09
DataValue, 2, 0, 6.3350000000000009, 3.3693999999999996E-09, -3.3739999999999997E-09
DataValue, 2, 0, 6.3950000000000005, 3.3646999999999998E-09, -3.3712999999999997E-09
DataValue, 2, 0, 6.455000000000001, 3.3633999999999998E-09, -3.3684999999999997E-09
DataValue, 2, 0, 6.5150000000000006, 3.3590999999999997E-09, -3.3653999999999996E-09
DataValue, 2, 0, 6.575, 3.3568E-09, -3.3632999999999997E-09
DataValue, 2, 0, 6.6350000000000007, 3.3559999999999996E-09, -3.3604999999999997E-09
DataValue, 2, 0, 6.695, 3.3514E-09, -3.3583E-09
DataValue, 2, 0, 6.7550000000000008, 3.3529999999999995E-09, -3.3455999999999997E-09
DataValue, 2, 0, 6.8050000000000006, 3.3483999999999997E-09, -3.3529999999999995E-09
DataValue, 2, 0, 6.86, 5.6423999999999995E-09, -5.7797E-09
DataValue, 2, 0, 6.9200000000000008, 6.5797999999999991E-09, -6.5865999999999996E-09
DataValue, 2, 0, 6.98, 6.580699999999999E-09, -6.5868E-09
DataValue, 2, 0, 7.0400000000000009, 6.5810999999999991E-09, -6.5829999999999993E-09
DataValue, 2, 0, 7.1000000000000005, 6.5783999999999995E-09, -6.582199999999999E-09
DataValue, 2, 0, 7.16, 6.5764E-09, -6.5809999999999995E-09
DataValue, 2, 0, 7.2200000000000006, 6.5762999999999993E-09, -6.5646999999999991E-09
DataValue, 2, 0, 7.2700000000000005, 6.571199999999999E-09, -6.5764999999999994E-09
DataValue, 2, 0, 7.32, 6.5702999999999991E-09, -6.5624999999999992E-09
DataValue, 2, 0, 7.370000000000001, 6.5647999999999995E-09, -6.571199999999999E-09
DataValue, 2, 0, 7.4200000000000008, 6.5637999999999992E-09, -6.5572E-09
DataValue, 2, 0, 7.4700000000000006, 6.5608999999999995E-09, -6.5641999999999993E-09
DataValue, 2, 0, 7.525, 6.5568999999999991E-09, -6.5613999999999993E-09
DataValue, 2, 0, 7.5850000000000009, 6.5537999999999994E-09, -6.5568999999999991E-09
DataValue, 2, 0, 7.6450000000000005, 6.5490999999999992E-09, -6.5540999999999991E-09
DataValue, 2, 0, 7.705000000000001, 6.5434999999999992E-09, -6.5515999999999996E-09
DataValue, 2, 0, 7.7650000000000006, 6.5397E-09, -6.5477E-09
DataValue, 2, 0, 7.8250000000000011, 6.5382999999999992E-09, -6.5278999999999993E-09
DataValue, 2, 0, 7.8750000000000009, 6.532099999999999E-09, -6.5399999999999993E-09
DataValue, 2, 0, 7.9250000000000007, 6.5315E-09, -6.5226999999999994E-09
DataValue, 2, 0, 7.9750000000000005, 6.5243999999999995E-09, -6.532299999999999E-09
DataValue, 2, 0, 8.025, 6.5209E-09, -6.514599999999999E-09
DataValue, 2, 0, 8.0750000000000011, 6.5181999999999993E-09, -6.5233999999999992E-09
DataValue, 2, 0, 8.13, 6.5125999999999992E-09, -6.5207999999999992E-09
DataValue, 2, 0, 8.1900000000000013, 6.5084999999999992E-09, -6.5175999999999991E-09
DataValue, 2, 0, 8.25, 6.5049999999999994E-09, -6.5105999999999994E-09
DataValue, 2, 0, 8.31, 6.4999999999999995E-09, -6.5067999999999991E-09
DataValue, 2, 0, 8.370000000000001, 6.4965999999999993E-09, -6.5027999999999995E-09
DataValue, 2, 0, 8.4300000000000015, 6.494299999999999E-09, -6.479E-09
DataValue, 2, 0, 8.48, 6.4874E-09, -6.4941999999999993E-09
DataValue, 2, 0, 8.5300000000000011, 6.4844999999999993E-09, -6.475499999999999E-09
DataValue, 2, 0, 8.58, 6.4785999999999995E-09, -6.4852999999999995E-09
DataValue, 2, 0, 8.63, 6.4736999999999993E-09, -6.4656999999999993E-09
DataValue, 2, 0, 8.6800000000000015, 6.4714999999999994E-09, -6.4777999999999993E-09
DataValue, 2, 0, 8.7350000000000012, 6.4650999999999991E-09, -6.4736E-09
DataValue, 2, 0, 8.795, 6.4613999999999992E-09, -6.4675999999999995E-09
DataValue, 2, 0, 8.855, 6.4548E-09, -6.4623999999999995E-09
DataValue, 2, 0, 8.9150000000000009, 6.4492999999999992E-09, -6.4576E-09
DataValue, 2, 0, 8.9750000000000014, 6.4466E-09, -6.4529999999999991E-09
DataValue, 2, 0, 9.035, 6.444599999999999E-09, -6.432499999999999E-09
DataValue, 2, 0, 9.085, 6.4373E-09, -6.4446999999999995E-09
DataValue, 2, 0, 9.1350000000000016, 6.4347999999999993E-09, -6.426899999999999E-09
DataValue, 2, 0, 9.185, 6.4282999999999994E-09, -6.4368999999999996E-09
DataValue, 2, 0, 9.2350000000000012, 6.4237999999999993E-09, -6.4146E-09
DataValue, 2, 0, 9.285, 6.4187E-09, -6.4295E-09
DataValue, 2, 0, 9.3400000000000016, 6.4157E-09, -6.4237E-09
DataValue, 2, 0, 9.4, 6.4118999999999993E-09, -6.4196999999999992E-09
DataValue, 2, 0, 9.46, 6.4049999999999993E-09, -6.4138999999999991E-09
DataValue, 2, 0, 9.5200000000000014, 6.4001999999999995E-09, -6.4094999999999994E-09
DataValue, 2, 0, 9.58, 6.400099999999999E-09, -6.3840999999999991E-09
DataValue, 2, 0, 9.63, 6.3913E-09, -6.4017999999999991E-09
DataValue, 2, 0, 9.6800000000000015, 6.3904E-09, -6.3794999999999993E-09
DataValue, 2, 0, 9.73, 6.382599999999999E-09, -6.3936999999999995E-09
DataValue, 2, 0, 9.7800000000000011, 6.3800999999999995E-09, -6.3716E-09
DataValue, 2, 0, 9.83, 6.3779E-09, -6.3846E-09
DataValue, 2, 0, 9.8850000000000016, 6.3708999999999992E-09, -6.3228E-09
DataValue, 2, 0, 9.945, 5.8694E-09, -4.3445999999999992E-09
DataValue, 2, 0, 10.005, 3.1537999999999996E-09, -3.1654E-09
DataValue, 2, 0, 10.065000000000001, 3.1535999999999995E-09, -3.1659999999999996E-09
DataValue, 2, 0, 10.125, 3.1507999999999995E-09, -3.1604999999999996E-09
DataValue, 2, 0, 10.185, 3.1476999999999998E-09, -3.1587E-09
DataValue, 2, 0, 10.245000000000001, 3.1453999999999995E-09, -3.1548999999999995E-09
DataValue, 2, 0, 10.305000000000002, 3.1469999999999996E-09, -3.1359E-09
DataValue, 2, 0, 10.355, 3.1406999999999997E-09, -3.1505E-09
DataValue, 2, 0, 10.405000000000001, 3.1399E-09, -3.1318E-09
DataValue, 2, 0, 10.455, 3.1360999999999995E-09, -3.1468999999999995E-09
DataValue, 2, 0, 10.510000000000002, 3.1339999999999997E-09, -3.1425E-09
DataValue, 2, 0, 10.57, 3.1312999999999997E-09, -3.1400999999999995E-09
DataValue, 2, 0, 10.63, 3.1292E-09, -3.1392999999999997E-09
